# MHz S MA R 50
!   freq        S11       
1000.000  0.95272  -24.98
1013.655  0.94800  -25.88
1027.309  0.95118  -26.43
1040.964  0.95724  -27.45
1054.618  0.97650  -28.94
1068.273  0.98214  -30.55
1081.928  0.98707  -31.52
1095.582  0.98978  -32.40
1109.237  0.98951  -32.25
1122.892  0.98341  -31.83
1136.546  0.97585  -31.27
1150.201  0.96788  -31.11
1163.855  0.96135  -30.69
1177.510  0.95353  -30.71
1191.165  0.95079  -31.31
1204.819  0.95707  -31.94
1218.474  0.96370  -33.12
1232.129  0.96903  -34.48
1245.783  0.97366  -35.03
1259.438  0.97873  -35.93
1273.092  0.97760  -35.94
1286.747  0.97362  -36.32
1300.402  0.96676  -35.88
1314.056  0.95896  -35.63
1327.711  0.95011  -35.81
1341.365  0.94344  -35.56
1355.020  0.93795  -36.32
1368.675  0.93918  -36.90
1382.329  0.94256  -38.11
1395.984  0.95153  -39.18
1409.639  0.96152  -40.30
1423.293  0.96555  -40.71
1436.948  0.96978  -41.47
1450.602  0.96384  -41.83
1464.257  0.95954  -42.22
1477.912  0.95456  -41.28
1491.566  0.94769  -40.89
1505.221  0.93842  -41.20
1518.876  0.93427  -41.65
1532.530  0.93452  -42.18
1546.185  0.93883  -42.82
1559.839  0.94181  -43.35
1573.494  0.95334  -44.37
1587.149  0.95554  -44.28
1600.803  0.95978  -44.65
1614.458  0.95781  -45.19
1628.112  0.95156  -45.97
1641.767  0.94552  -45.79
1655.422  0.93652  -46.14
1669.076  0.93230  -47.02
1682.731  0.92718  -46.60
1696.386  0.92729  -47.56
1710.040  0.92575  -48.53
1723.695  0.93216  -49.32
1737.349  0.93678  -50.29
1751.004  0.94621  -51.13
1764.659  0.93976  -51.71
1778.313  0.94594  -51.89
1791.968  0.93927  -53.26
1805.622  0.93542  -53.26
1819.277  0.93376  -53.86
1832.932  0.92176  -54.32
1846.586  0.91616  -54.72
1860.241  0.91903  -55.47
1873.896  0.91810  -56.20
1887.550  0.92026  -56.91
1901.205  0.92833  -57.94
1914.859  0.92990  -58.65
1928.514  0.92857  -59.16
1942.169  0.92808  -59.84
1955.823  0.92431  -60.15
1969.478  0.92196  -60.98
1983.133  0.91036  -62.05
1996.787  0.89841  -62.68
2010.442  0.90718  -62.71
2024.096  0.90756  -64.19
2037.751  0.90503  -65.35
2051.406  0.90959  -65.86
2065.060  0.91936  -66.89
2078.715  0.91808  -67.26
2092.369  0.91256  -68.44
2106.024  0.91827  -68.99
2119.679  0.91651  -69.20
2133.333  0.91327  -70.52
2146.988  0.89043  -71.02
2160.643  0.88470  -72.28
2174.297  0.88693  -72.96
2187.952  0.88396  -73.70
2201.606  0.88340  -75.13
2215.261  0.88879  -76.60
2228.916  0.89148  -77.17
2242.570  0.89196  -77.49
2256.225  0.88640  -78.30
2269.880  0.88861  -78.63
2283.534  0.87195  -81.09
2297.189  0.86434  -83.27
2310.843  0.84528  -84.45
2324.498  0.83743  -85.89
2338.153  0.84994  -87.30
2351.807  0.83886  -89.27
2365.462  0.83551  -90.88
2379.116  0.84099  -92.20
2392.771  0.84484  -93.54
2406.426  0.83386  -93.72
2420.080  0.82397  -93.44
2433.735  0.81403  -94.73
2447.390  0.79287  -97.61
2461.044  0.75990  -99.49
2474.699  0.73464 -100.73
2488.353  0.71404 -103.04
2502.008  0.69685 -106.36
2515.663  0.67349 -109.28
2529.317  0.65631 -111.73
2542.972  0.63850 -114.64
2556.627  0.60385 -115.67
2570.281  0.56815 -115.92
2583.936  0.53158 -116.16
2597.590  0.48620 -117.92
2611.245  0.42901 -115.70
2624.900  0.37525 -114.10
2638.554  0.32618 -110.27
2652.209  0.28981 -103.94
2665.863  0.27202  -95.43
2679.518  0.27259  -85.97
2693.173  0.29739  -77.91
2706.827  0.33427  -72.71
2720.482  0.38162  -68.80
2734.137  0.43299  -67.16
2747.791  0.48096  -65.56
2761.446  0.52355  -65.84
2775.100  0.55131  -67.73
2788.755  0.57396  -69.37
2802.410  0.58719  -71.11
2816.064  0.60934  -74.61
2829.719  0.62830  -78.41
2843.373  0.64366  -81.74
2857.028  0.66859  -84.71
2870.683  0.68272  -87.74
2884.337  0.70622  -89.48
2897.992  0.72509  -88.95
2911.647  0.75102  -90.30
2925.301  0.76050  -92.48
2938.956  0.76246  -93.87
2952.610  0.74604  -94.43
2966.265  0.73858  -95.72
2979.920  0.73158  -99.14
2993.574  0.72977 -101.25
3007.229  0.72165 -104.91
3020.884  0.72169 -107.67
3034.538  0.73155 -110.34
3048.193  0.73333 -112.07
3061.847  0.75192 -113.72
3075.502  0.76146 -115.85
3089.157  0.76349 -118.01
3102.811  0.75289 -119.30
3116.466  0.73898 -120.06
3130.120  0.72130 -121.85
3143.775  0.69846 -123.24
3157.430  0.68260 -127.75
3171.084  0.67026 -130.05
3184.739  0.66124 -133.34
3198.394  0.65966 -136.14
3212.048  0.64961 -138.26
3225.703  0.65482 -139.84
3239.357  0.65035 -140.60
3253.012  0.63668 -142.70
3266.667  0.61494 -143.76
3280.321  0.59235 -144.54
3293.976  0.56546 -144.15
3307.631  0.54209 -146.54
3321.285  0.51979 -147.72
3334.940  0.50119 -149.88
3348.594  0.49056 -151.56
3362.249  0.49054 -152.78
3375.904  0.50043 -151.06
3389.558  0.51612 -151.75
3403.213  0.52894 -149.45
3416.867  0.52889 -147.83
3430.522  0.51969 -150.14
3444.177  0.50928 -152.53
3457.831  0.50044 -154.97
3471.486  0.49736 -158.95
3485.141  0.49385 -163.89
3498.795  0.50454 -168.93
3512.450  0.51189 -173.22
3526.104  0.53069 -175.29
3539.759  0.53737 -176.46
3553.414  0.55157 -179.01
3567.068  0.55724  179.85
3580.723  0.55188  178.15
3594.378  0.53563  174.86
3608.032  0.50238  170.71
3621.687  0.48060  164.58
3635.341  0.47007  157.78
3648.996  0.45798  152.49
3662.651  0.43946  146.28
3676.305  0.43063  140.16
3689.960  0.41394  137.80
3703.614  0.41909  130.89
3717.269  0.40813  126.17
3730.924  0.39592  121.88
3744.578  0.36250  117.00
3758.233  0.33784  109.75
3771.888  0.28342  103.97
3785.542  0.27170   95.79
3799.197  0.26943   80.23
3812.851  0.26640   67.23
3826.506  0.28078   61.90
3840.161  0.29830   55.79
3853.815  0.28464   54.25
3867.470  0.23958   46.16
3881.124  0.22423   41.23
3894.779  0.18596   24.11
3908.434  0.14261    4.39
3922.088  0.15789  -17.52
3935.743  0.20187  -33.76
3949.398  0.22486  -39.50
3963.052  0.26463  -44.64
3976.707  0.27372  -53.53
3990.361  0.27894  -54.93
4004.016  0.26016  -63.14
4017.671  0.24687  -71.63
4031.325  0.24705  -84.93
4044.980  0.26525  -95.88
4058.635  0.29067 -108.37
4072.289  0.33630 -115.76
4085.944  0.37610 -121.54
4099.598  0.39902 -124.15
4113.253  0.42918 -127.69
4126.908  0.42629 -130.43
4140.562  0.42744 -134.83
4154.217  0.42014 -141.15
4167.871  0.39776 -147.26
4181.526  0.40530 -157.29
4195.181  0.42464 -161.98
4208.835  0.45843 -168.38
4222.490  0.48586 -172.83
4236.145  0.51352 -174.46
4249.799  0.52593 -177.32
4263.454  0.53844  179.09
4277.108  0.52424  175.20
4290.763  0.52577  171.65
4304.418  0.50729  166.71
4318.072  0.50182  160.86
4331.727  0.50970  154.46
4345.382  0.53278  150.47
4359.036  0.56229  146.01
4372.691  0.58731  145.40
4386.345  0.60583  144.01
4400.000  0.58570  141.66
