# MHz S MA R 50
!   freq        S11       
2300.000  0.87159  -84.29
2303.213  0.86932  -83.41
2306.426  0.87628  -83.61
2309.639  0.85918  -83.98
2312.851  0.85920  -84.06
2316.064  0.84716  -84.76
2319.277  0.85253  -84.23
2322.490  0.85925  -84.21
2325.703  0.85667  -84.28
2328.916  0.85758  -85.31
2332.129  0.86431  -85.46
2335.341  0.85476  -85.47
2338.554  0.85941  -85.52
2341.767  0.85362  -86.50
2344.980  0.85394  -86.54
2348.193  0.85589  -86.25
2351.406  0.85098  -87.01
2354.618  0.84547  -87.19
2357.831  0.84936  -87.88
2361.044  0.84094  -88.09
2364.257  0.84373  -88.10
2367.470  0.84526  -89.08
2370.683  0.84968  -88.25
2373.896  0.83613  -89.59
2377.108  0.84341  -88.89
2380.321  0.83575  -89.71
2383.534  0.83457  -90.48
2386.747  0.83051  -91.18
2389.960  0.83729  -90.92
2393.173  0.83255  -91.01
2396.386  0.81447  -92.38
2399.598  0.83084  -92.12
2402.811  0.81961  -91.69
2406.024  0.82187  -92.79
2409.237  0.81839  -92.84
2412.450  0.82034  -93.19
2415.663  0.82670  -92.89
2418.876  0.81856  -94.37
2422.088  0.81930  -94.83
2425.301  0.82527  -95.04
2428.514  0.81540  -95.26
2431.727  0.81203  -95.94
2434.940  0.81203  -96.02
2438.153  0.81295  -97.42
2441.365  0.81185  -96.93
2444.578  0.80469  -97.42
2447.791  0.80621  -98.12
2451.004  0.79986  -97.44
2454.217  0.80617  -99.68
2457.430  0.79479  -99.36
2460.643  0.79291  -99.72
2463.855  0.79397 -100.79
2467.068  0.78603  -99.91
2470.281  0.78120 -100.67
2473.494  0.78591 -101.01
2476.707  0.77593 -101.21
2479.920  0.77447 -101.76
2483.133  0.76750 -100.41
2486.345  0.75664 -102.76
2489.558  0.76545 -102.57
2492.771  0.76792 -102.75
2495.984  0.77865 -105.08
2499.197  0.75633 -104.27
2502.410  0.75557 -104.67
2505.622  0.74208 -105.24
2508.835  0.73813 -105.75
2512.048  0.73642 -106.73
2515.261  0.72320 -107.11
2518.474  0.72123 -107.36
2521.687  0.71795 -107.71
2524.900  0.71561 -108.25
2528.112  0.70092 -108.91
2531.325  0.70185 -110.08
2534.538  0.69820 -110.09
2537.751  0.69008 -111.51
2540.964  0.68320 -111.71
2544.177  0.67103 -111.85
2547.390  0.66259 -113.21
2550.602  0.66553 -113.34
2553.815  0.65929 -114.92
2557.028  0.64981 -116.12
2560.241  0.63647 -116.77
2563.454  0.63052 -117.42
2566.667  0.62473 -117.84
2569.880  0.62185 -118.88
2573.092  0.61475 -119.46
2576.305  0.60904 -119.41
2579.518  0.60346 -120.43
2582.731  0.59275 -122.12
2585.944  0.58569 -120.98
2589.157  0.58484 -123.05
2592.369  0.56586 -123.98
2595.582  0.55743 -124.42
2598.795  0.54391 -125.12
2602.008  0.53782 -126.13
2605.221  0.53236 -125.98
2608.434  0.51478 -126.44
2611.647  0.50628 -127.29
2614.859  0.49394 -127.59
2618.072  0.48754 -127.79
2621.285  0.46562 -128.39
2624.498  0.46413 -128.71
2627.711  0.45182 -128.62
2630.924  0.43851 -128.14
2634.137  0.42480 -128.30
2637.349  0.40680 -128.27
2640.562  0.39558 -127.64
2643.775  0.37933 -127.94
2646.988  0.36736 -128.50
2650.201  0.35430 -125.16
2653.414  0.33766 -126.94
2656.627  0.32643 -125.39
2659.839  0.30951 -124.32
2663.052  0.29630 -122.72
2666.265  0.28398 -121.91
2669.478  0.26873 -119.59
2672.691  0.25814 -118.39
2675.904  0.24396 -115.49
2679.116  0.23473 -111.91
2682.329  0.22252 -108.26
2685.542  0.21360 -105.49
2688.755  0.21295 -101.77
2691.968  0.20492  -98.18
2695.181  0.20238  -94.07
2698.394  0.20105  -89.53
2701.606  0.20064  -85.52
2704.819  0.20260  -82.00
2708.032  0.20893  -77.46
2711.245  0.21325  -74.12
2714.458  0.21889  -71.02
2717.671  0.22481  -68.28
2720.884  0.23677  -66.28
2724.096  0.24643  -63.52
2727.309  0.25088  -61.41
2730.522  0.26936  -60.32
2733.735  0.28404  -58.43
2736.948  0.28740  -58.61
2740.161  0.30101  -58.23
2743.373  0.31724  -57.47
2746.586  0.32550  -57.76
2749.799  0.33891  -56.60
2753.012  0.34907  -59.28
2756.225  0.36148  -57.74
2759.438  0.37188  -58.89
2762.651  0.38404  -58.45
2765.863  0.39586  -59.11
2769.076  0.40653  -60.28
2772.289  0.42033  -60.88
2775.502  0.43346  -61.63
2778.715  0.43984  -62.00
2781.928  0.45292  -63.18
2785.141  0.46156  -62.19
2788.353  0.47445  -64.70
2791.566  0.48171  -64.54
2794.779  0.49836  -64.28
2797.992  0.49945  -65.58
2801.205  0.51014  -66.16
2804.418  0.52350  -66.36
2807.631  0.53029  -67.56
2810.843  0.54000  -68.32
2814.056  0.55858  -69.48
2817.269  0.56101  -70.27
2820.482  0.57034  -70.25
2823.695  0.57684  -71.56
2826.908  0.59151  -71.39
2830.120  0.59519  -72.37
2833.333  0.60001  -72.58
2836.546  0.60928  -73.61
2839.759  0.61565  -72.06
2842.972  0.62400  -74.72
2846.185  0.63145  -74.57
2849.398  0.63325  -75.41
2852.610  0.64205  -75.63
2855.823  0.63642  -75.49
2859.036  0.64508  -76.92
2862.249  0.65103  -77.29
2865.462  0.65613  -77.98
2868.675  0.65969  -78.56
2871.888  0.65703  -78.50
2875.100  0.66525  -79.15
2878.313  0.66622  -79.65
2881.526  0.68086  -79.39
2884.739  0.67062  -80.79
2887.952  0.67806  -80.59
2891.165  0.68103  -80.86
2894.378  0.68072  -81.60
2897.590  0.68466  -82.17
2900.803  0.69145  -83.16
2904.016  0.69175  -82.57
2907.229  0.69908  -83.96
2910.442  0.69380  -84.38
2913.655  0.71179  -84.87
2916.867  0.70399  -86.15
2920.080  0.70571  -87.16
2923.293  0.71012  -88.67
2926.506  0.71100  -88.24
2929.719  0.71240  -88.67
2932.932  0.71007  -89.83
2936.145  0.70695  -89.61
2939.357  0.71692  -89.71
2942.570  0.70342  -91.62
2945.783  0.71921  -91.12
2948.996  0.71488  -92.11
2952.209  0.71241  -92.72
2955.422  0.71134  -93.41
2958.635  0.71070  -94.07
2961.847  0.71898  -93.89
2965.060  0.71508  -95.02
2968.273  0.72635  -94.94
2971.486  0.72664  -95.71
2974.699  0.72752  -96.13
2977.912  0.73057  -96.57
2981.124  0.73124  -96.53
2984.337  0.73499  -97.25
2987.550  0.73048  -98.14
2990.763  0.73735  -99.64
2993.976  0.73479  -99.08
2997.189  0.73685  -99.25
3000.402  0.73654  -99.60
3003.614  0.72783  -99.66
3006.827  0.72281 -100.96
3010.040  0.73297 -101.16
3013.253  0.73180 -101.81
3016.466  0.72723 -102.89
3019.679  0.73337 -102.76
3022.892  0.72660 -103.68
3026.104  0.72525 -104.17
3029.317  0.72353 -104.29
3032.530  0.72350 -105.36
3035.743  0.72786 -105.19
3038.956  0.72073 -105.03
3042.169  0.71537 -106.01
3045.382  0.72128 -106.70
3048.594  0.71937 -107.10
3051.807  0.72214 -108.51
3055.020  0.71595 -107.80
3058.233  0.71808 -108.01
3061.446  0.71789 -109.64
3064.659  0.72345 -110.88
3067.871  0.71701 -110.36
3071.084  0.71946 -111.96
3074.297  0.71864 -112.62
3077.510  0.72047 -113.30
3080.723  0.71649 -114.81
3083.936  0.71314 -114.14
3087.149  0.71011 -115.77
3090.361  0.71261 -117.18
3093.574  0.70476 -117.70
3096.787  0.69472 -117.17
3100.000  0.70476 -117.76
