# MHz S MA R 50
!   freq        S11       
2300.000  0.85761  -83.97
2303.213  0.86799  -83.68
2306.426  0.88094  -84.25
2309.639  0.85104  -84.07
2312.851  0.85886  -83.91
2316.064  0.84346  -84.51
2319.277  0.85288  -84.61
2322.490  0.85811  -84.55
2325.703  0.85515  -84.80
2328.916  0.85466  -85.60
2332.129  0.86521  -85.47
2335.341  0.85479  -85.36
2338.554  0.85779  -85.59
2341.767  0.85634  -86.08
2344.980  0.85368  -86.42
2348.193  0.85328  -86.30
2351.406  0.85015  -86.35
2354.618  0.84254  -87.19
2357.831  0.84841  -86.94
2361.044  0.84031  -88.41
2364.257  0.84196  -88.08
2367.470  0.84232  -88.78
2370.683  0.84725  -88.72
2373.896  0.83324  -88.79
2377.108  0.84533  -89.47
2380.321  0.83894  -90.08
2383.534  0.83334  -90.57
2386.747  0.83622  -90.85
2389.960  0.83303  -90.52
2393.173  0.83085  -91.31
2396.386  0.81519  -91.71
2399.598  0.83428  -92.19
2402.811  0.81788  -92.13
2406.024  0.81489  -92.97
2409.237  0.81937  -92.65
2412.450  0.82013  -93.07
2415.663  0.82326  -92.72
2418.876  0.81968  -94.64
2422.088  0.81833  -93.95
2425.301  0.82398  -95.54
2428.514  0.81301  -95.26
2431.727  0.81665  -95.82
2434.940  0.80911  -95.28
2438.153  0.81126  -97.29
2441.365  0.80703  -96.61
2444.578  0.81193  -97.60
2447.791  0.80260  -97.57
2451.004  0.79484  -97.10
2454.217  0.79904  -99.28
2457.430  0.79150  -99.11
2460.643  0.79053  -99.60
2463.855  0.79182 -100.00
2467.068  0.77963  -99.80
2470.281  0.78507 -100.09
2473.494  0.78914 -100.79
2476.707  0.77068 -101.14
2479.920  0.77418 -101.66
2483.133  0.76119 -100.80
2486.345  0.75861 -102.49
2489.558  0.76751 -101.95
2492.771  0.76701 -102.64
2495.984  0.78096 -103.34
2499.197  0.74759 -104.21
2502.410  0.75387 -104.08
2505.622  0.74396 -104.67
2508.835  0.73608 -105.80
2512.048  0.73370 -106.41
2515.261  0.72185 -106.81
2518.474  0.71890 -107.31
2521.687  0.71839 -107.97
2524.900  0.71512 -108.29
2528.112  0.69885 -108.99
2531.325  0.70349 -110.25
2534.538  0.69890 -110.48
2537.751  0.69003 -111.02
2540.964  0.68151 -111.46
2544.177  0.67398 -112.17
2547.390  0.66597 -113.14
2550.602  0.66517 -113.21
2553.815  0.65474 -114.84
2557.028  0.65010 -115.88
2560.241  0.64063 -117.29
2563.454  0.63753 -116.82
2566.667  0.63083 -117.22
2569.880  0.62132 -119.05
2573.092  0.61602 -119.08
2576.305  0.60922 -118.94
2579.518  0.60381 -120.22
2582.731  0.59832 -121.17
2585.944  0.59323 -121.25
2589.157  0.58328 -122.41
2592.369  0.57164 -123.11
2595.582  0.56213 -124.24
2598.795  0.55511 -125.02
2602.008  0.54833 -124.95
2605.221  0.54016 -125.72
2608.434  0.52701 -124.73
2611.647  0.51425 -126.23
2614.859  0.49738 -126.64
2618.072  0.49499 -125.90
2621.285  0.47213 -126.89
2624.498  0.47355 -127.33
2627.711  0.45867 -127.12
2630.924  0.44378 -126.77
2634.137  0.43182 -127.88
2637.349  0.41562 -128.58
2640.562  0.40391 -126.53
2643.775  0.38891 -127.15
2646.988  0.37566 -127.66
2650.201  0.36277 -126.47
2653.414  0.34612 -126.54
2656.627  0.33228 -124.79
2659.839  0.31855 -124.51
2663.052  0.30667 -122.89
2666.265  0.29181 -122.24
2669.478  0.27883 -120.16
2672.691  0.26477 -118.95
2675.904  0.25378 -117.00
2679.116  0.23707 -112.75
2682.329  0.23026 -110.74
2685.542  0.21894 -108.16
2688.755  0.21878 -104.37
2691.968  0.21175 -100.69
2695.181  0.20363  -96.76
2698.394  0.20192  -92.20
2701.606  0.20161  -88.60
2704.819  0.20119  -83.88
2708.032  0.20553  -79.74
2711.245  0.20470  -76.06
2714.458  0.21123  -73.33
2717.671  0.21812  -70.13
2720.884  0.23617  -67.44
2724.096  0.24143  -64.66
2727.309  0.24761  -63.10
2730.522  0.25936  -61.53
2733.735  0.27463  -60.36
2736.948  0.28010  -59.45
2740.161  0.29478  -59.54
2743.373  0.30777  -58.62
2746.586  0.32108  -57.80
2749.799  0.33102  -58.00
2753.012  0.34352  -59.10
2756.225  0.35421  -59.19
2759.438  0.37019  -58.77
2762.651  0.38008  -58.89
2765.863  0.39235  -58.98
2769.076  0.40189  -59.38
2772.289  0.41828  -60.60
2775.502  0.43252  -61.06
2778.715  0.43775  -61.79
2781.928  0.45359  -62.71
2785.141  0.46018  -62.21
2788.353  0.46789  -64.90
2791.566  0.47881  -64.65
2794.779  0.49134  -64.80
2797.992  0.49868  -66.23
2801.205  0.50635  -67.19
2804.418  0.52721  -66.41
2807.631  0.53026  -67.12
2810.843  0.54031  -68.97
2814.056  0.55653  -68.35
2817.269  0.56519  -68.89
2820.482  0.56926  -69.87
2823.695  0.57761  -72.00
2826.908  0.59253  -71.52
2830.120  0.59843  -72.56
2833.333  0.60072  -73.04
2836.546  0.61454  -73.71
2839.759  0.62192  -73.96
2842.972  0.62323  -74.70
2846.185  0.62998  -74.16
2849.398  0.62871  -74.89
2852.610  0.63678  -74.80
2855.823  0.64025  -75.76
2859.036  0.64758  -77.10
2862.249  0.65114  -77.64
2865.462  0.65540  -78.02
2868.675  0.66068  -78.78
2871.888  0.65798  -78.76
2875.100  0.66579  -79.34
2878.313  0.66742  -79.67
2881.526  0.67892  -79.94
2884.739  0.67205  -80.43
2887.952  0.68026  -80.51
2891.165  0.68398  -81.30
2894.378  0.68290  -81.81
2897.590  0.68503  -81.80
2900.803  0.69006  -83.19
2904.016  0.68976  -83.17
2907.229  0.69876  -84.21
2910.442  0.69331  -84.91
2913.655  0.71480  -85.68
2916.867  0.70263  -86.75
2920.080  0.70730  -87.11
2923.293  0.71272  -88.41
2926.506  0.71270  -88.63
2929.719  0.71530  -89.35
2932.932  0.71271  -89.78
2936.145  0.70832  -90.45
2939.357  0.71416  -91.57
2942.570  0.71139  -91.69
2945.783  0.71380  -92.73
2948.996  0.71341  -93.02
2952.209  0.71556  -92.11
2955.422  0.71320  -94.23
2958.635  0.71929  -93.88
2961.847  0.71543  -94.23
2965.060  0.71398  -95.51
2968.273  0.72580  -95.40
2971.486  0.72791  -96.27
2974.699  0.72544  -96.73
2977.912  0.73001  -96.96
2981.124  0.73200  -97.42
2984.337  0.73416  -98.55
2987.550  0.73214  -98.75
2990.763  0.73775  -99.90
2993.976  0.73854 -100.57
2997.189  0.73691  -99.58
3000.402  0.74114 -100.96
3003.614  0.73048 -101.09
3006.827  0.72110 -101.05
3010.040  0.72957 -101.90
3013.253  0.73113 -102.12
3016.466  0.73055 -103.29
3019.679  0.73492 -103.13
3022.892  0.72836 -104.26
3026.104  0.72959 -105.13
3029.317  0.72361 -104.87
3032.530  0.72116 -105.50
3035.743  0.72503 -106.22
3038.956  0.72227 -105.70
3042.169  0.71280 -106.69
3045.382  0.71944 -107.15
3048.594  0.71998 -107.16
3051.807  0.72309 -108.55
3055.020  0.71546 -108.64
3058.233  0.71674 -108.67
3061.446  0.71900 -110.47
3064.659  0.72416 -111.25
3067.871  0.72053 -111.22
3071.084  0.71561 -113.01
3074.297  0.71913 -113.71
3077.510  0.71588 -115.09
3080.723  0.71588 -115.35
3083.936  0.71592 -114.62
3087.149  0.71144 -117.01
3090.361  0.71286 -117.56
3093.574  0.70635 -118.30
3096.787  0.69998 -118.75
3100.000  0.69808 -118.64
