# MHz S MA R 50
!   freq        S11       
2300.000  0.84763  -90.68
2303.213  0.83566  -89.12
2306.426  0.82440  -90.51
2309.639  0.84221  -90.62
2312.851  0.83560  -91.09
2316.064  0.82292  -90.57
2319.277  0.82972  -91.42
2322.490  0.82058  -91.84
2325.703  0.82266  -92.56
2328.916  0.82394  -92.22
2332.129  0.83059  -92.16
2335.341  0.83045  -91.68
2338.554  0.83513  -92.74
2341.767  0.83229  -93.93
2344.980  0.82977  -93.29
2348.193  0.82660  -94.07
2351.406  0.82236  -94.80
2354.618  0.82381  -94.95
2357.831  0.82725  -94.98
2361.044  0.81442  -95.97
2364.257  0.81058  -96.19
2367.470  0.81790  -96.48
2370.683  0.82289  -96.68
2373.896  0.81438  -97.23
2377.108  0.81743  -98.29
2380.321  0.80293  -97.74
2383.534  0.80889  -98.53
2386.747  0.81764  -99.32
2389.960  0.80560  -98.71
2393.173  0.81181  -99.54
2396.386  0.80538  -99.35
2399.598  0.81214 -100.30
2402.811  0.80345  -99.97
2406.024  0.80958 -100.96
2409.237  0.80464 -100.84
2412.450  0.80270 -101.19
2415.663  0.80175 -102.10
2418.876  0.79895 -101.54
2422.088  0.79818 -102.58
2425.301  0.79993 -102.89
2428.514  0.79612 -102.94
2431.727  0.79097 -103.44
2434.940  0.79200 -102.59
2438.153  0.79106 -104.08
2441.365  0.79301 -105.10
2444.578  0.77635 -106.33
2447.791  0.78359 -104.69
2451.004  0.77678 -105.52
2454.217  0.77929 -105.78
2457.430  0.78277 -107.04
2460.643  0.77338 -106.69
2463.855  0.76918 -107.10
2467.068  0.77003 -107.19
2470.281  0.76635 -108.08
2473.494  0.76675 -108.12
2476.707  0.76010 -108.15
2479.920  0.75378 -107.96
2483.133  0.74130 -108.51
2486.345  0.75333 -108.80
2489.558  0.74036 -110.45
2492.771  0.73965 -109.79
2495.984  0.76157 -112.31
2499.197  0.73494 -111.84
2502.410  0.72601 -112.22
2505.622  0.72206 -111.80
2508.835  0.71898 -113.21
2512.048  0.71421 -114.10
2515.261  0.70900 -114.39
2518.474  0.70212 -115.40
2521.687  0.70090 -116.09
2524.900  0.69369 -116.75
2528.112  0.68904 -117.45
2531.325  0.67474 -117.67
2534.538  0.67951 -118.42
2537.751  0.66980 -119.27
2540.964  0.66277 -120.05
2544.177  0.65908 -120.51
2547.390  0.65548 -121.38
2550.602  0.65004 -122.10
2553.815  0.63924 -123.10
2557.028  0.63666 -124.22
2560.241  0.62990 -124.74
2563.454  0.62070 -124.59
2566.667  0.61785 -125.47
2569.880  0.60828 -125.59
2573.092  0.60657 -127.14
2576.305  0.59825 -127.66
2579.518  0.59552 -127.45
2582.731  0.58602 -128.01
2585.944  0.57780 -129.33
2589.157  0.57539 -130.07
2592.369  0.56704 -130.35
2595.582  0.55510 -130.46
2598.795  0.53944 -130.99
2602.008  0.54075 -132.64
2605.221  0.52837 -133.13
2608.434  0.51960 -132.99
2611.647  0.51076 -134.08
2614.859  0.48936 -134.40
2618.072  0.48538 -133.55
2621.285  0.47584 -133.64
2624.498  0.45608 -133.67
2627.711  0.45324 -133.78
2630.924  0.43652 -134.21
2634.137  0.42631 -134.24
2637.349  0.41475 -134.18
2640.562  0.40283 -133.09
2643.775  0.38867 -132.94
2646.988  0.37665 -133.33
2650.201  0.36004 -131.90
2653.414  0.34576 -131.52
2656.627  0.33401 -131.49
2659.839  0.32167 -130.18
2663.052  0.30742 -128.77
2666.265  0.29347 -127.79
2669.478  0.28092 -126.05
2672.691  0.27057 -124.18
2675.904  0.26073 -123.41
2679.116  0.24990 -120.34
2682.329  0.24308 -117.58
2685.542  0.23754 -116.04
2688.755  0.22708 -111.70
2691.968  0.22610 -108.32
2695.181  0.21991 -104.95
2698.394  0.21852 -101.46
2701.606  0.22162  -98.41
2704.819  0.22001  -94.81
2708.032  0.23312  -91.82
2711.245  0.23013  -89.20
2714.458  0.23915  -86.41
2717.671  0.24629  -83.65
2720.884  0.25105  -80.85
2724.096  0.25982  -79.67
2727.309  0.27110  -77.18
2730.522  0.28244  -75.78
2733.735  0.29339  -75.53
2736.948  0.30075  -75.01
2740.161  0.31490  -74.28
2743.373  0.32795  -73.34
2746.586  0.34100  -73.88
2749.799  0.35056  -73.63
2753.012  0.36108  -72.60
2756.225  0.37434  -73.03
2759.438  0.38821  -73.22
2762.651  0.39924  -73.61
2765.863  0.40900  -74.80
2769.076  0.41975  -74.07
2772.289  0.43403  -75.18
2775.502  0.44234  -75.61
2778.715  0.45149  -75.78
2781.928  0.46086  -76.19
2785.141  0.47209  -75.08
2788.353  0.48262  -77.01
2791.566  0.49489  -77.28
2794.779  0.50518  -77.65
2797.992  0.50536  -78.61
2801.205  0.52391  -78.81
2804.418  0.52804  -79.21
2807.631  0.53652  -79.32
2810.843  0.55223  -79.43
2814.056  0.55414  -80.01
2817.269  0.56289  -81.43
2820.482  0.57329  -82.12
2823.695  0.57272  -81.96
2826.908  0.58582  -82.60
2830.120  0.59013  -83.11
2833.333  0.59835  -84.34
2836.546  0.60304  -85.55
2839.759  0.60845  -84.95
2842.972  0.60892  -84.79
2846.185  0.61761  -86.41
2849.398  0.61380  -86.12
2852.610  0.62600  -87.52
2855.823  0.61801  -87.56
2859.036  0.62803  -88.69
2862.249  0.63434  -89.03
2865.462  0.63399  -89.08
2868.675  0.63570  -89.47
2871.888  0.64468  -90.80
2875.100  0.64344  -91.65
2878.313  0.64685  -92.35
2881.526  0.64702  -92.43
2884.739  0.64757  -92.98
2887.952  0.65797  -93.56
2891.165  0.65516  -94.43
2894.378  0.66033  -94.43
2897.590  0.66345  -95.25
2900.803  0.67646  -94.89
2904.016  0.66857  -94.89
2907.229  0.68043  -96.60
2910.442  0.68367  -98.20
2913.655  0.69211  -98.67
2916.867  0.68671  -98.80
2920.080  0.68045  -99.80
2923.293  0.68350 -101.32
2926.506  0.69667 -101.75
2929.719  0.69779 -102.49
2932.932  0.70207 -103.00
2936.145  0.68622 -102.61
2939.357  0.69427 -103.10
2942.570  0.68905 -103.65
2945.783  0.69407 -104.30
2948.996  0.69044 -104.69
2952.209  0.69188 -106.04
2955.422  0.70341 -105.14
2958.635  0.69186 -105.13
2961.847  0.70030 -105.42
2965.060  0.69659 -107.41
2968.273  0.70181 -107.37
2971.486  0.71071 -107.16
2974.699  0.71299 -107.83
2977.912  0.71363 -109.10
2981.124  0.71521 -109.84
2984.337  0.71417 -109.65
2987.550  0.70939 -109.46
2990.763  0.71473 -110.46
2993.976  0.71312 -110.93
2997.189  0.71106 -110.91
3000.402  0.71553 -111.54
3003.614  0.70734 -111.97
3006.827  0.70863 -112.32
3010.040  0.70308 -112.91
3013.253  0.71307 -113.78
3016.466  0.70776 -113.47
3019.679  0.70254 -114.52
3022.892  0.71126 -114.49
3026.104  0.70412 -115.88
3029.317  0.70926 -116.57
3032.530  0.69905 -116.96
3035.743  0.69614 -117.88
3038.956  0.70012 -118.24
3042.169  0.69840 -119.63
3045.382  0.70096 -118.63
3048.594  0.69844 -119.32
3051.807  0.70328 -119.12
3055.020  0.70260 -119.35
3058.233  0.70611 -120.24
3061.446  0.70335 -120.47
3064.659  0.70015 -121.91
3067.871  0.70413 -123.05
3071.084  0.70208 -122.59
3074.297  0.70364 -124.41
3077.510  0.70122 -124.86
3080.723  0.69553 -124.96
3083.936  0.69831 -126.27
3087.149  0.69387 -125.94
3090.361  0.69597 -127.29
3093.574  0.70428 -127.73
3096.787  0.69771 -127.36
3100.000  0.68284 -129.10
