# MHz S MA R 50
!   freq        S11       
1000.000  0.94872  -24.84
1013.655  0.94710  -25.63
1027.309  0.95064  -26.29
1040.964  0.95669  -27.09
1054.618  0.97729  -28.80
1068.273  0.98219  -30.12
1081.928  0.98846  -31.53
1095.582  0.98964  -32.21
1109.237  0.98952  -32.24
1122.892  0.98347  -31.87
1136.546  0.97604  -31.01
1150.201  0.96647  -30.58
1163.855  0.96223  -30.61
1177.510  0.95626  -30.39
1191.165  0.95234  -31.15
1204.819  0.95693  -31.97
1218.474  0.96363  -32.99
1232.129  0.96943  -34.06
1245.783  0.97167  -34.90
1259.438  0.97847  -35.82
1273.092  0.97772  -35.85
1286.747  0.97247  -35.74
1300.402  0.96570  -35.80
1314.056  0.95927  -35.40
1327.711  0.94965  -35.67
1341.365  0.94297  -35.54
1355.020  0.93795  -36.15
1368.675  0.93775  -36.47
1382.329  0.94299  -37.84
1395.984  0.94995  -39.00
1409.639  0.96057  -39.90
1423.293  0.96413  -40.81
1436.948  0.96886  -40.94
1450.602  0.96270  -41.65
1464.257  0.96044  -42.02
1477.912  0.95350  -41.19
1491.566  0.94490  -40.53
1505.221  0.93712  -40.75
1518.876  0.93263  -41.44
1532.530  0.93424  -41.80
1546.185  0.93892  -42.68
1559.839  0.94209  -43.13
1573.494  0.95273  -44.15
1587.149  0.95482  -44.51
1600.803  0.95964  -44.38
1614.458  0.95779  -44.86
1628.112  0.95018  -45.06
1641.767  0.94562  -45.75
1655.422  0.93553  -45.73
1669.076  0.93106  -46.46
1682.731  0.92751  -46.22
1696.386  0.92652  -46.89
1710.040  0.92580  -48.11
1723.695  0.93152  -49.27
1737.349  0.93520  -49.85
1751.004  0.94465  -51.04
1764.659  0.94089  -51.61
1778.313  0.94605  -52.09
1791.968  0.94189  -53.07
1805.622  0.93571  -52.99
1819.277  0.93177  -53.73
1832.932  0.92280  -54.22
1846.586  0.91546  -54.94
1860.241  0.91841  -55.65
1873.896  0.91854  -56.17
1887.550  0.92008  -56.84
1901.205  0.92767  -57.69
1914.859  0.92990  -58.66
1928.514  0.92936  -59.01
1942.169  0.92819  -59.84
1955.823  0.92558  -60.22
1969.478  0.92137  -60.79
1983.133  0.91156  -61.63
1996.787  0.89743  -62.70
2010.442  0.90599  -62.55
2024.096  0.90612  -64.07
2037.751  0.90260  -65.14
2051.406  0.90904  -66.04
2065.060  0.91909  -66.74
2078.715  0.91774  -67.32
2092.369  0.91299  -68.39
2106.024  0.91580  -68.58
2119.679  0.91854  -69.74
2133.333  0.91327  -70.13
2146.988  0.89302  -71.27
2160.643  0.88501  -72.57
2174.297  0.88750  -72.52
2187.952  0.88568  -73.82
2201.606  0.88302  -75.23
2215.261  0.88567  -76.49
2228.916  0.89382  -76.77
2242.570  0.89376  -77.24
2256.225  0.88827  -78.06
2269.880  0.89163  -78.61
2283.534  0.88171  -80.96
2297.189  0.86965  -82.80
2310.843  0.84904  -84.59
2324.498  0.84175  -85.04
2338.153  0.85562  -88.01
2351.807  0.84599  -89.12
2365.462  0.84495  -90.50
2379.116  0.84953  -91.72
2392.771  0.85450  -93.10
2406.426  0.84345  -93.29
2420.080  0.83942  -94.08
2433.735  0.83104  -94.48
2447.390  0.81374  -97.78
2461.044  0.78626  -98.98
2474.699  0.76054 -100.73
2488.353  0.74262 -103.40
2502.008  0.73321 -106.92
2515.663  0.71344 -109.51
2529.317  0.69991 -111.88
2542.972  0.68762 -115.65
2556.627  0.66141 -117.05
2570.281  0.62948 -118.67
2583.936  0.59842 -120.10
2597.590  0.55530 -123.61
2611.245  0.49581 -125.29
2624.900  0.43502 -126.93
2638.554  0.37085 -127.60
2652.209  0.30852 -126.00
2665.863  0.25642 -121.98
2679.518  0.21451 -112.38
2693.173  0.20040  -96.62
2706.827  0.21703  -81.01
2720.482  0.25947  -69.87
2734.137  0.31496  -63.78
2747.791  0.37594  -59.87
2761.446  0.43029  -59.57
2775.100  0.47254  -61.79
2788.755  0.50802  -63.07
2802.410  0.53297  -64.93
2816.064  0.56137  -68.27
2829.719  0.58877  -72.72
2843.373  0.60971  -76.63
2857.028  0.63785  -80.18
2870.683  0.65871  -83.29
2884.337  0.68566  -85.96
2897.992  0.70769  -85.77
2911.647  0.73253  -87.14
2925.301  0.74553  -88.98
2938.956  0.74813  -90.58
2952.610  0.73208  -91.72
2966.265  0.72674  -93.62
2979.920  0.71963  -96.94
2993.574  0.71904  -99.77
3007.229  0.71031 -103.93
3020.884  0.70916 -106.33
3034.538  0.71866 -109.62
3048.193  0.72069 -111.84
3061.847  0.73888 -112.94
3075.502  0.75639 -115.46
3089.157  0.74610 -117.40
3102.811  0.73910 -118.93
3116.466  0.72285 -120.17
3130.120  0.70160 -122.45
3143.775  0.67905 -125.37
3157.430  0.65905 -128.67
3171.084  0.64463 -131.72
3184.739  0.62908 -134.88
3198.394  0.62129 -137.42
3212.048  0.60407 -138.95
3225.703  0.59916 -140.55
3239.357  0.58545 -142.98
3253.012  0.56263 -143.08
3266.667  0.53317 -141.87
3280.321  0.50742 -141.33
3293.976  0.48721 -139.89
3307.631  0.46595 -139.21
3321.285  0.46074 -140.11
3334.940  0.45117 -139.85
3348.594  0.46012 -141.31
3362.249  0.47784 -142.48
3375.904  0.49950 -141.74
3389.558  0.52888 -142.72
3403.213  0.55064 -141.71
3416.867  0.55544 -141.90
3430.522  0.55361 -144.56
3444.177  0.54268 -146.92
3457.831  0.53497 -150.47
3471.486  0.53044 -154.90
3485.141  0.51880 -161.14
3498.795  0.52470 -165.85
3512.450  0.53203 -170.49
3526.104  0.53594 -172.80
3539.759  0.55048 -174.47
3553.414  0.55915 -176.54
3567.068  0.56794 -178.99
3580.723  0.55767  179.78
3594.378  0.54457  176.33
3608.032  0.51099  172.78
3621.687  0.48182  165.84
3635.341  0.46723  160.14
3648.996  0.45842  154.20
3662.651  0.44179  147.71
3676.305  0.43021  142.99
3689.960  0.41869  139.07
3703.614  0.43055  133.23
3717.269  0.42119  128.58
3730.924  0.38894  124.08
3744.578  0.37535  118.83
3758.233  0.34709  112.33
3771.888  0.28462  104.49
3785.542  0.27352   97.32
3799.197  0.27594   83.92
3812.851  0.25977   72.56
3826.506  0.28230   64.53
3840.161  0.29488   58.32
3853.815  0.28909   56.16
3867.470  0.25305   48.12
3881.124  0.23763   42.93
3894.779  0.19877   26.69
3908.434  0.17065   13.14
3922.088  0.16157  -12.57
3935.743  0.21679  -24.93
3949.398  0.22818  -33.97
3963.052  0.26952  -37.71
3976.707  0.28069  -46.23
3990.361  0.29073  -48.82
4004.016  0.26892  -57.12
4017.671  0.25349  -65.52
4031.325  0.25432  -79.39
4044.980  0.27197  -89.99
4058.635  0.29464 -103.16
4072.289  0.33919 -109.95
4085.944  0.37705 -116.45
4099.598  0.40855 -117.80
4113.253  0.42676 -120.97
4126.908  0.43012 -124.40
4140.562  0.43093 -126.98
4154.217  0.40363 -134.65
4167.871  0.40856 -139.63
4181.526  0.39851 -151.44
4195.181  0.42150 -157.52
4208.835  0.44605 -165.02
4222.490  0.46968 -172.67
4236.145  0.50107 -173.47
4249.799  0.52594 -178.63
4263.454  0.51544  178.69
4277.108  0.50228  177.20
4290.763  0.49151  173.39
4304.418  0.47832  168.46
4318.072  0.47537  162.11
4331.727  0.48375  156.24
4345.382  0.50273  154.00
4359.036  0.53763  148.79
4372.691  0.56346  148.59
4386.345  0.58147  147.54
4400.000  0.57189  146.02
