# MHz S MA R 50
!   freq        S11       
2300.000  0.88148  -84.20
2303.213  0.85501  -83.85
2306.426  0.86046  -84.89
2309.639  0.85693  -84.74
2312.851  0.86589  -84.62
2316.064  0.85483  -84.81
2319.277  0.86048  -85.47
2322.490  0.84512  -85.68
2325.703  0.85168  -85.83
2328.916  0.85509  -86.18
2332.129  0.85782  -85.77
2335.341  0.85945  -85.78
2338.554  0.85690  -87.10
2341.767  0.85653  -87.46
2344.980  0.85631  -87.06
2348.193  0.85072  -88.44
2351.406  0.84834  -88.26
2354.618  0.83893  -89.41
2357.831  0.84221  -88.98
2361.044  0.83608  -89.83
2364.257  0.83355  -90.19
2367.470  0.84345  -90.38
2370.683  0.84707  -90.68
2373.896  0.84084  -91.57
2377.108  0.84191  -92.19
2380.321  0.82978  -92.00
2383.534  0.83353  -92.63
2386.747  0.84251  -92.77
2389.960  0.83035  -92.37
2393.173  0.83137  -93.52
2396.386  0.82708  -93.63
2399.598  0.83619  -94.21
2402.811  0.82787  -93.85
2406.024  0.82203  -94.36
2409.237  0.82659  -94.26
2412.450  0.82102  -94.95
2415.663  0.82184  -95.84
2418.876  0.81934  -95.85
2422.088  0.81655  -96.24
2425.301  0.81706  -96.33
2428.514  0.81496  -97.00
2431.727  0.80961  -96.86
2434.940  0.80649  -96.71
2438.153  0.80591  -97.78
2441.365  0.80672  -98.22
2444.578  0.78622  -99.49
2447.791  0.79804  -98.03
2451.004  0.78896  -99.43
2454.217  0.79507  -99.99
2457.430  0.79445 -100.81
2460.643  0.77946 -100.07
2463.855  0.78286 -101.33
2467.068  0.77518 -101.40
2470.281  0.77289 -101.56
2473.494  0.77374 -101.75
2476.707  0.76552 -101.63
2479.920  0.76416 -101.81
2483.133  0.74208 -102.68
2486.345  0.75853 -103.06
2489.558  0.74446 -103.37
2492.771  0.74557 -103.88
2495.984  0.76667 -105.92
2499.197  0.73710 -104.95
2502.410  0.72797 -105.69
2505.622  0.72447 -105.64
2508.835  0.71980 -107.05
2512.048  0.71425 -107.91
2515.261  0.70375 -108.18
2518.474  0.69977 -109.25
2521.687  0.69624 -109.22
2524.900  0.68827 -110.27
2528.112  0.68244 -111.05
2531.325  0.67418 -111.36
2534.538  0.67312 -112.41
2537.751  0.65862 -112.74
2540.964  0.65382 -113.75
2544.177  0.64856 -114.44
2547.390  0.64651 -114.53
2550.602  0.63820 -115.16
2553.815  0.62609 -116.58
2557.028  0.62722 -116.78
2560.241  0.61524 -118.16
2563.454  0.61296 -117.89
2566.667  0.60201 -118.07
2569.880  0.58924 -119.62
2573.092  0.58738 -121.11
2576.305  0.58142 -121.05
2579.518  0.57476 -120.92
2582.731  0.56904 -121.22
2585.944  0.56136 -122.96
2589.157  0.54828 -123.70
2592.369  0.54577 -123.82
2595.582  0.52974 -124.82
2598.795  0.51513 -124.76
2602.008  0.51290 -125.32
2605.221  0.49978 -125.97
2608.434  0.48834 -126.23
2611.647  0.48095 -126.96
2614.859  0.46294 -126.61
2618.072  0.45226 -126.82
2621.285  0.44595 -126.96
2624.498  0.42881 -126.47
2627.711  0.41879 -126.58
2630.924  0.40570 -126.81
2634.137  0.39007 -126.97
2637.349  0.38035 -126.35
2640.562  0.37117 -124.82
2643.775  0.35558 -124.05
2646.988  0.34187 -122.66
2650.201  0.32907 -122.65
2653.414  0.31522 -121.56
2656.627  0.30426 -120.69
2659.839  0.29099 -118.75
2663.052  0.27926 -116.36
2666.265  0.26673 -114.75
2669.478  0.25747 -113.44
2672.691  0.24737 -109.45
2675.904  0.23986 -108.27
2679.116  0.23438 -105.20
2682.329  0.22759 -101.33
2685.542  0.22290  -98.15
2688.755  0.21849  -94.32
2691.968  0.22027  -90.95
2695.181  0.22078  -87.83
2698.394  0.22267  -84.15
2701.606  0.22590  -80.82
2704.819  0.22710  -77.42
2708.032  0.23929  -74.56
2711.245  0.24741  -72.49
2714.458  0.25262  -70.45
2717.671  0.26342  -67.44
2720.884  0.26956  -65.98
2724.096  0.28155  -65.35
2727.309  0.29715  -63.38
2730.522  0.30235  -62.38
2733.735  0.31575  -62.07
2736.948  0.32586  -61.45
2740.161  0.33686  -61.43
2743.373  0.34592  -61.46
2746.586  0.36340  -60.84
2749.799  0.37573  -60.21
2753.012  0.38319  -60.99
2756.225  0.39872  -61.27
2759.438  0.41056  -61.47
2762.651  0.42242  -61.64
2765.863  0.43184  -62.31
2769.076  0.44307  -62.18
2772.289  0.45329  -62.87
2775.502  0.46562  -63.45
2778.715  0.47307  -64.50
2781.928  0.48216  -64.66
2785.141  0.49057  -64.06
2788.353  0.50069  -66.88
2791.566  0.51345  -65.36
2794.779  0.52128  -66.82
2797.992  0.53010  -66.92
2801.205  0.53626  -68.26
2804.418  0.54559  -68.43
2807.631  0.55443  -69.07
2810.843  0.56497  -69.31
2814.056  0.57571  -69.07
2817.269  0.57960  -70.97
2820.482  0.59774  -70.25
2823.695  0.59158  -71.38
2826.908  0.60601  -71.65
2830.120  0.60569  -73.61
2833.333  0.61600  -73.48
2836.546  0.61924  -74.29
2839.759  0.62870  -74.58
2842.972  0.62919  -73.90
2846.185  0.63572  -75.20
2849.398  0.63861  -75.92
2852.610  0.64286  -76.68
2855.823  0.64278  -77.43
2859.036  0.64897  -77.73
2862.249  0.65622  -78.56
2865.462  0.66110  -79.07
2868.675  0.65950  -79.22
2871.888  0.66495  -80.60
2875.100  0.66534  -81.39
2878.313  0.67001  -81.69
2881.526  0.67143  -81.87
2884.739  0.67320  -83.13
2887.952  0.68252  -83.37
2891.165  0.68039  -83.56
2894.378  0.68671  -84.28
2897.590  0.68605  -85.18
2900.803  0.69705  -84.33
2904.016  0.69278  -85.04
2907.229  0.69768  -87.13
2910.442  0.70766  -87.60
2913.655  0.70283  -89.36
2916.867  0.71079  -88.24
2920.080  0.70463  -89.49
2923.293  0.71283  -89.93
2926.506  0.72138  -90.84
2929.719  0.72148  -92.27
2932.932  0.73289  -92.28
2936.145  0.71263  -92.36
2939.357  0.71768  -93.52
2942.570  0.71507  -93.21
2945.783  0.71774  -94.26
2948.996  0.71546  -94.62
2952.209  0.72138  -95.72
2955.422  0.72974  -95.90
2958.635  0.71182  -95.99
2961.847  0.72527  -96.85
2965.060  0.72356  -97.46
2968.273  0.72366  -97.12
2971.486  0.73566  -97.88
2974.699  0.74194  -98.55
2977.912  0.74026  -98.98
2981.124  0.74227  -98.72
2984.337  0.73948 -101.41
2987.550  0.73528 -100.00
2990.763  0.74078 -101.11
2993.976  0.73929 -101.44
2997.189  0.74140 -102.17
3000.402  0.74189 -101.90
3003.614  0.73955 -103.32
3006.827  0.73233 -102.91
3010.040  0.73177 -103.55
3013.253  0.74257 -104.81
3016.466  0.73707 -104.73
3019.679  0.72332 -104.79
3022.892  0.73930 -105.57
3026.104  0.73258 -106.64
3029.317  0.73206 -107.87
3032.530  0.72635 -107.83
3035.743  0.72242 -108.95
3038.956  0.72871 -109.56
3042.169  0.73164 -110.27
3045.382  0.72857 -109.80
3048.594  0.72723 -110.06
3051.807  0.73131 -110.02
3055.020  0.72761 -110.92
3058.233  0.73172 -111.29
3061.446  0.73107 -111.61
3064.659  0.72841 -113.20
3067.871  0.73155 -113.59
3071.084  0.72708 -114.79
3074.297  0.72717 -115.84
3077.510  0.72827 -115.56
3080.723  0.72253 -116.35
3083.936  0.72664 -117.77
3087.149  0.71832 -117.19
3090.361  0.71967 -118.82
3093.574  0.71947 -120.09
3096.787  0.72019 -119.39
3100.000  0.71019 -120.73
