# MHz S MA R 50
!   freq        S11       
2300.000  0.76543  -97.11
2303.213  0.74184  -96.82
2306.426  0.72762  -97.46
2309.639  0.73796  -97.97
2312.851  0.73945  -97.89
2316.064  0.73175  -97.84
2319.277  0.73705  -97.82
2322.490  0.72262  -98.92
2325.703  0.72215  -99.37
2328.916  0.72807  -99.01
2332.129  0.72580  -98.87
2335.341  0.72678  -99.14
2338.554  0.72775  -99.60
2341.767  0.73102 -100.42
2344.980  0.72510  -99.89
2348.193  0.72020 -100.93
2351.406  0.71728 -101.54
2354.618  0.71906 -102.72
2357.831  0.72166 -101.95
2361.044  0.70807 -102.22
2364.257  0.70403 -102.84
2367.470  0.70595 -102.53
2370.683  0.71458 -103.70
2373.896  0.70466 -104.09
2377.108  0.70538 -104.82
2380.321  0.69472 -104.45
2383.534  0.69241 -105.21
2386.747  0.70399 -105.65
2389.960  0.69376 -105.27
2393.173  0.69545 -105.85
2396.386  0.69121 -106.19
2399.598  0.69383 -107.06
2402.811  0.68621 -106.30
2406.024  0.69277 -107.66
2409.237  0.68767 -107.11
2412.450  0.68735 -108.33
2415.663  0.68545 -108.86
2418.876  0.68089 -108.40
2422.088  0.68114 -108.81
2425.301  0.68000 -109.17
2428.514  0.67949 -110.09
2431.727  0.67404 -109.33
2434.940  0.67372 -109.47
2438.153  0.67090 -111.29
2441.365  0.67177 -111.20
2444.578  0.65635 -111.85
2447.791  0.66149 -111.18
2451.004  0.65379 -112.40
2454.217  0.65945 -112.57
2457.430  0.65801 -113.82
2460.643  0.65288 -112.93
2463.855  0.65354 -113.67
2467.068  0.64301 -114.08
2470.281  0.64020 -114.51
2473.494  0.63979 -114.33
2476.707  0.63188 -114.47
2479.920  0.63184 -113.82
2483.133  0.61887 -115.24
2486.345  0.62536 -116.13
2489.558  0.61871 -116.37
2492.771  0.61581 -116.81
2495.984  0.63328 -117.79
2499.197  0.60894 -116.86
2502.410  0.60127 -118.47
2505.622  0.59926 -118.04
2508.835  0.59438 -119.42
2512.048  0.58757 -120.16
2515.261  0.58349 -120.76
2518.474  0.58253 -122.10
2521.687  0.57302 -121.64
2524.900  0.57253 -123.18
2528.112  0.56486 -123.29
2531.325  0.55918 -124.16
2534.538  0.55596 -124.66
2537.751  0.55060 -125.80
2540.964  0.54466 -126.25
2544.177  0.53819 -127.31
2547.390  0.53486 -127.46
2550.602  0.53502 -128.49
2553.815  0.52240 -129.92
2557.028  0.52326 -129.75
2560.241  0.51346 -131.34
2563.454  0.50791 -131.58
2566.667  0.50604 -131.39
2569.880  0.49851 -132.74
2573.092  0.49618 -134.18
2576.305  0.49221 -133.80
2579.518  0.48782 -134.71
2582.731  0.47945 -135.09
2585.944  0.47811 -137.26
2589.157  0.47312 -136.42
2592.369  0.46104 -137.05
2595.582  0.45515 -137.73
2598.795  0.45024 -138.89
2602.008  0.44745 -139.31
2605.221  0.43444 -139.68
2608.434  0.42839 -140.08
2611.647  0.41924 -141.31
2614.859  0.40685 -141.85
2618.072  0.39908 -140.27
2621.285  0.39032 -141.80
2624.498  0.37908 -141.00
2627.711  0.37091 -142.04
2630.924  0.36007 -141.90
2634.137  0.34650 -142.56
2637.349  0.33743 -142.27
2640.562  0.32746 -140.58
2643.775  0.31475 -142.39
2646.988  0.30306 -140.23
2650.201  0.28867 -141.28
2653.414  0.27954 -140.55
2656.627  0.26667 -140.48
2659.839  0.25767 -140.25
2663.052  0.24323 -138.56
2666.265  0.22969 -137.56
2669.478  0.21789 -136.44
2672.691  0.21258 -135.45
2675.904  0.19654 -133.46
2679.116  0.18647 -130.95
2682.329  0.17821 -128.69
2685.542  0.17346 -127.17
2688.755  0.16301 -123.47
2691.968  0.15887 -119.74
2695.181  0.15655 -116.91
2698.394  0.15184 -113.23
2701.606  0.14883 -109.48
2704.819  0.14623 -105.11
2708.032  0.15466 -100.52
2711.245  0.14940  -97.32
2714.458  0.14863  -94.86
2717.671  0.16152  -90.44
2720.884  0.16260  -87.15
2724.096  0.16693  -85.62
2727.309  0.17432  -82.04
2730.522  0.17992  -80.94
2733.735  0.18662  -79.90
2736.948  0.19323  -78.13
2740.161  0.20032  -78.27
2743.373  0.20636  -77.37
2746.586  0.21863  -76.16
2749.799  0.22645  -75.36
2753.012  0.23379  -74.81
2756.225  0.24368  -75.08
2759.438  0.25296  -74.59
2762.651  0.25945  -74.96
2765.863  0.26742  -75.49
2769.076  0.28055  -74.62
2772.289  0.28402  -73.85
2775.502  0.29572  -76.15
2778.715  0.30052  -75.25
2781.928  0.30783  -75.38
2785.141  0.31515  -75.69
2788.353  0.32312  -76.54
2791.566  0.33409  -75.75
2794.779  0.34305  -76.74
2797.992  0.34978  -76.66
2801.205  0.35573  -77.88
2804.418  0.36158  -78.17
2807.631  0.36828  -78.66
2810.843  0.37525  -78.90
2814.056  0.38360  -79.05
2817.269  0.38859  -79.46
2820.482  0.39876  -79.70
2823.695  0.39647  -80.69
2826.908  0.40708  -81.27
2830.120  0.40867  -79.80
2833.333  0.41692  -82.05
2836.546  0.41858  -82.46
2839.759  0.42553  -82.91
2842.972  0.42602  -82.79
2846.185  0.43263  -83.53
2849.398  0.43612  -82.36
2852.610  0.44304  -83.64
2855.823  0.43823  -83.07
2859.036  0.44204  -83.83
2862.249  0.44604  -84.26
2865.462  0.44874  -84.53
2868.675  0.45093  -84.97
2871.888  0.45123  -86.17
2875.100  0.45313  -86.62
2878.313  0.45214  -87.50
2881.526  0.45851  -87.99
2884.739  0.45872  -88.35
2887.952  0.46346  -88.83
2891.165  0.46241  -89.30
2894.378  0.46933  -89.22
2897.590  0.46864  -90.39
2900.803  0.47590  -89.57
2904.016  0.47443  -89.25
2907.229  0.48048  -91.69
2910.442  0.48240  -93.34
2913.655  0.48840  -93.74
2916.867  0.48679  -93.43
2920.080  0.47947  -95.03
2923.293  0.49000  -95.57
2926.506  0.49390  -96.35
2929.719  0.49805  -96.40
2932.932  0.51078  -97.53
2936.145  0.49111  -97.11
2939.357  0.49887  -97.46
2942.570  0.49694  -98.12
2945.783  0.50701  -98.13
2948.996  0.49910  -99.12
2952.209  0.50327  -99.56
2955.422  0.50958  -98.82
2958.635  0.50760  -99.26
2961.847  0.50942 -101.08
2965.060  0.50602 -100.84
2968.273  0.51456 -101.36
2971.486  0.52188 -101.61
2974.699  0.52762 -101.82
2977.912  0.52423 -103.11
2981.124  0.52905 -103.39
2984.337  0.52871 -104.39
2987.550  0.52740 -103.78
2990.763  0.53173 -103.77
2993.976  0.53149 -104.30
2997.189  0.52784 -104.01
3000.402  0.53346 -104.93
3003.614  0.52892 -105.56
3006.827  0.53305 -106.30
3010.040  0.52533 -106.24
3013.253  0.53953 -107.28
3016.466  0.53676 -107.28
3019.679  0.52772 -107.91
3022.892  0.53416 -108.33
3026.104  0.53606 -109.23
3029.317  0.53058 -110.68
3032.530  0.52801 -110.51
3035.743  0.52309 -111.15
3038.956  0.52988 -112.42
3042.169  0.53345 -112.93
3045.382  0.53366 -111.39
3048.594  0.53138 -112.38
3051.807  0.53431 -112.76
3055.020  0.53193 -113.93
3058.233  0.53843 -113.80
3061.446  0.53083 -114.54
3064.659  0.53631 -115.68
3067.871  0.53990 -115.95
3071.084  0.53647 -116.84
3074.297  0.53676 -118.06
3077.510  0.53525 -118.50
3080.723  0.53308 -118.98
3083.936  0.53719 -119.59
3087.149  0.53571 -119.82
3090.361  0.53897 -120.97
3093.574  0.54206 -121.55
3096.787  0.53884 -122.23
3100.000  0.53238 -123.23
