# MHz S MA R 50
!   freq        S11       
2300.000  0.86535  -84.38
2303.213  0.85774  -82.31
2306.426  0.88222  -84.13
2309.639  0.85867  -84.68
2312.851  0.85809  -84.24
2316.064  0.84895  -84.35
2319.277  0.85160  -84.13
2322.490  0.85967  -84.19
2325.703  0.85395  -84.74
2328.916  0.85456  -85.53
2332.129  0.85992  -85.85
2335.341  0.85699  -85.17
2338.554  0.86149  -85.04
2341.767  0.85623  -86.18
2344.980  0.85569  -86.52
2348.193  0.85082  -86.65
2351.406  0.84844  -87.13
2354.618  0.84473  -87.54
2357.831  0.83476  -87.47
2361.044  0.83957  -88.33
2364.257  0.83907  -87.82
2367.470  0.84383  -89.68
2370.683  0.84729  -88.86
2373.896  0.82966  -89.20
2377.108  0.84339  -89.64
2380.321  0.83097  -90.02
2383.534  0.82796  -90.60
2386.747  0.83893  -91.16
2389.960  0.83401  -90.89
2393.173  0.83089  -90.78
2396.386  0.81647  -92.49
2399.598  0.83034  -92.10
2402.811  0.81902  -91.59
2406.024  0.81604  -92.78
2409.237  0.81702  -93.26
2412.450  0.81354  -93.69
2415.663  0.82393  -93.60
2418.876  0.81805  -94.65
2422.088  0.81555  -95.26
2425.301  0.82243  -95.81
2428.514  0.80743  -94.55
2431.727  0.80825  -95.68
2434.940  0.81066  -96.22
2438.153  0.80984  -97.35
2441.365  0.80839  -97.21
2444.578  0.80046  -98.76
2447.791  0.80204  -98.50
2451.004  0.79091  -98.47
2454.217  0.80304  -99.72
2457.430  0.79335  -99.97
2460.643  0.78905  -99.67
2463.855  0.79205 -100.13
2467.068  0.77725 -100.19
2470.281  0.77439 -100.61
2473.494  0.78396 -100.65
2476.707  0.77410 -101.10
2479.920  0.77468 -101.55
2483.133  0.75730 -101.45
2486.345  0.74012 -103.61
2489.558  0.76103 -102.19
2492.771  0.76805 -102.37
2495.984  0.77662 -104.73
2499.197  0.74456 -104.23
2502.410  0.74905 -104.97
2505.622  0.74179 -104.94
2508.835  0.73384 -105.80
2512.048  0.72865 -106.29
2515.261  0.72105 -106.93
2518.474  0.71396 -107.17
2521.687  0.71137 -107.44
2524.900  0.70668 -108.11
2528.112  0.69554 -108.94
2531.325  0.69715 -110.33
2534.538  0.69117 -110.37
2537.751  0.68259 -111.45
2540.964  0.67849 -112.58
2544.177  0.66320 -112.07
2547.390  0.65955 -113.29
2550.602  0.65673 -113.80
2553.815  0.64648 -114.83
2557.028  0.64105 -116.23
2560.241  0.63002 -116.98
2563.454  0.62684 -116.74
2566.667  0.61664 -117.86
2569.880  0.61464 -118.79
2573.092  0.60522 -118.61
2576.305  0.59727 -118.98
2579.518  0.59295 -119.83
2582.731  0.58079 -121.44
2585.944  0.57360 -121.27
2589.157  0.56612 -122.97
2592.369  0.55583 -122.93
2595.582  0.54795 -123.73
2598.795  0.54293 -124.08
2602.008  0.52829 -125.33
2605.221  0.51842 -126.27
2608.434  0.50965 -126.03
2611.647  0.50097 -126.61
2614.859  0.48493 -126.91
2618.072  0.47783 -126.57
2621.285  0.45890 -127.11
2624.498  0.45526 -126.20
2627.711  0.43410 -127.94
2630.924  0.42264 -127.32
2634.137  0.40986 -127.04
2637.349  0.39696 -126.09
2640.562  0.38076 -126.02
2643.775  0.36586 -126.57
2646.988  0.35663 -126.54
2650.201  0.34571 -124.39
2653.414  0.32742 -124.56
2656.627  0.31503 -122.23
2659.839  0.30028 -120.91
2663.052  0.28905 -119.07
2666.265  0.27322 -117.13
2669.478  0.26349 -115.84
2672.691  0.25415 -114.62
2675.904  0.24181 -110.70
2679.116  0.23167 -106.90
2682.329  0.22308 -103.46
2685.542  0.21714 -101.86
2688.755  0.21816  -96.72
2691.968  0.21260  -92.50
2695.181  0.21040  -88.67
2698.394  0.20872  -84.03
2701.606  0.21693  -80.44
2704.819  0.22015  -75.76
2708.032  0.23096  -74.79
2711.245  0.23713  -73.25
2714.458  0.25118  -71.98
2717.671  0.25188  -67.20
2720.884  0.26262  -64.18
2724.096  0.27508  -64.27
2727.309  0.30376  -66.06
2730.522  0.30861  -63.03
2733.735  0.30911  -59.65
2736.948  0.31638  -60.13
2740.161  0.32933  -62.38
2743.373  0.34394  -61.91
2746.586  0.37655  -64.89
2749.799  0.38348  -64.68
2753.012  0.38338  -65.68
2756.225  0.39134  -65.08
2759.438  0.41450  -66.80
2762.651  0.42296  -66.48
2765.863  0.41641  -62.91
2769.076  0.42281  -63.64
2772.289  0.44342  -67.14
2775.502  0.45962  -67.97
2778.715  0.46133  -68.71
2781.928  0.47926  -69.98
2785.141  0.48233  -68.70
2788.353  0.49055  -70.78
2791.566  0.49589  -69.68
2794.779  0.51635  -70.37
2797.992  0.51043  -71.57
2801.205  0.52400  -72.10
2804.418  0.53812  -72.58
2807.631  0.54132  -72.86
2810.843  0.55065  -73.88
2814.056  0.56254  -73.93
2817.269  0.57331  -73.94
2820.482  0.57546  -75.14
2823.695  0.58871  -72.87
2826.908  0.60851  -73.12
2830.120  0.60259  -76.08
2833.333  0.60241  -77.61
2836.546  0.61846  -78.51
2839.759  0.61799  -77.91
2842.972  0.62208  -79.19
2846.185  0.62701  -77.10
2849.398  0.62733  -79.17
2852.610  0.64617  -77.67
2855.823  0.65057  -77.79
2859.036  0.65239  -79.92
2862.249  0.64970  -81.63
2865.462  0.66453  -79.85
2868.675  0.66525  -80.79
2871.888  0.65082  -82.11
2875.100  0.66023  -82.28
2878.313  0.66088  -82.90
2881.526  0.66719  -83.71
2884.739  0.66318  -84.07
2887.952  0.66946  -82.16
2891.165  0.67335  -84.01
2894.378  0.68110  -83.02
2897.590  0.69138  -83.37
2900.803  0.69770  -84.28
2904.016  0.68299  -85.04
2907.229  0.68410  -86.46
2910.442  0.68200  -86.66
2913.655  0.70043  -88.15
2916.867  0.70980  -87.23
2920.080  0.71008  -88.47
2923.293  0.70836  -90.42
2926.506  0.69932  -90.84
2929.719  0.71329  -89.77
2932.932  0.70925  -91.43
2936.145  0.69009  -92.47
2939.357  0.69466  -93.23
2942.570  0.71630  -92.57
2945.783  0.71984  -93.04
2948.996  0.71411  -93.35
2952.209  0.71646  -93.62
2955.422  0.71678  -93.66
2958.635  0.71516  -94.91
2961.847  0.71403  -95.76
2965.060  0.71787  -95.84
2968.273  0.70943  -97.03
2971.486  0.70763  -97.71
2974.699  0.71227  -97.35
2977.912  0.70998  -98.89
2981.124  0.71413  -98.14
2984.337  0.71095 -100.62
2987.550  0.71762  -99.61
2990.763  0.72399  -99.86
2993.976  0.71338 -101.12
2997.189  0.71427 -101.18
3000.402  0.73002 -100.14
3003.614  0.71278 -101.88
3006.827  0.69700 -102.26
3010.040  0.73284 -102.18
3013.253  0.73546 -103.12
3016.466  0.72922 -103.98
3019.679  0.73789 -104.11
3022.892  0.73193 -105.12
3026.104  0.72661 -104.95
3029.317  0.71249 -105.65
3032.530  0.70328 -106.71
3035.743  0.71692 -106.60
3038.956  0.72497 -106.57
3042.169  0.70820 -107.97
3045.382  0.71333 -108.26
3048.594  0.72228 -107.28
3051.807  0.72559 -108.71
3055.020  0.71688 -109.19
3058.233  0.71895 -109.26
3061.446  0.71947 -110.86
3064.659  0.72391 -111.73
3067.871  0.71712 -111.59
3071.084  0.72146 -113.03
3074.297  0.71594 -113.62
3077.510  0.71762 -114.49
3080.723  0.71676 -115.83
3083.936  0.71125 -114.83
3087.149  0.70552 -117.46
3090.361  0.70742 -117.74
3093.574  0.70875 -118.17
3096.787  0.70041 -118.31
3100.000  0.70101 -118.60
