# MHz S MA R 50
!   freq        S11       
2300.000  0.85792  -85.04
2303.213  0.86336  -84.58
2306.426  0.88086  -84.99
2309.639  0.84716  -85.16
2312.851  0.86250  -84.91
2316.064  0.84926  -85.11
2319.277  0.85506  -85.05
2322.490  0.85693  -84.92
2325.703  0.84868  -85.37
2328.916  0.86091  -85.22
2332.129  0.86171  -85.75
2335.341  0.85810  -85.23
2338.554  0.85917  -86.00
2341.767  0.85829  -86.45
2344.980  0.85855  -86.50
2348.193  0.85560  -86.39
2351.406  0.85144  -86.95
2354.618  0.84480  -87.28
2357.831  0.85026  -88.02
2361.044  0.83967  -87.70
2364.257  0.84095  -87.95
2367.470  0.84164  -89.15
2370.683  0.84447  -88.57
2373.896  0.82988  -89.22
2377.108  0.84077  -90.00
2380.321  0.82962  -89.84
2383.534  0.82348  -90.98
2386.747  0.83164  -91.68
2389.960  0.82246  -91.60
2393.173  0.81852  -91.36
2396.386  0.80267  -93.11
2399.598  0.82228  -92.57
2402.811  0.79549  -91.81
2406.024  0.77916  -92.98
2409.237  0.80902  -94.38
2412.450  0.80708  -94.61
2415.663  0.80829  -95.25
2418.876  0.80329  -95.73
2422.088  0.80188  -96.61
2425.301  0.80995  -98.17
2428.514  0.79838  -96.77
2431.727  0.79475  -97.54
2434.940  0.79696  -97.18
2438.153  0.79749  -99.10
2441.365  0.79479  -98.96
2444.578  0.79890 -100.05
2447.791  0.79093  -99.95
2451.004  0.78568  -99.34
2454.217  0.79217 -100.92
2457.430  0.78407 -100.89
2460.643  0.78844 -101.42
2463.855  0.78446 -101.81
2467.068  0.77804 -101.67
2470.281  0.77663 -101.91
2473.494  0.78160 -101.78
2476.707  0.77246 -101.80
2479.920  0.77762 -102.27
2483.133  0.76078 -101.34
2486.345  0.76391 -103.00
2489.558  0.76793 -102.78
2492.771  0.76884 -103.18
2495.984  0.78125 -105.22
2499.197  0.75561 -104.22
2502.410  0.75466 -104.21
2505.622  0.74362 -104.76
2508.835  0.73666 -106.08
2512.048  0.73248 -106.81
2515.261  0.72145 -107.49
2518.474  0.71529 -107.57
2521.687  0.71540 -107.91
2524.900  0.70805 -108.39
2528.112  0.69668 -108.93
2531.325  0.69531 -110.21
2534.538  0.68655 -110.62
2537.751  0.68125 -111.82
2540.964  0.67433 -112.10
2544.177  0.65680 -112.74
2547.390  0.65489 -113.51
2550.602  0.64945 -114.56
2553.815  0.64267 -115.70
2557.028  0.63609 -116.89
2560.241  0.62189 -118.30
2563.454  0.61902 -118.29
2566.667  0.60780 -119.36
2569.880  0.60665 -119.84
2573.092  0.59666 -120.89
2576.305  0.59042 -121.28
2579.518  0.58589 -121.76
2582.731  0.57547 -124.11
2585.944  0.57190 -123.61
2589.157  0.56830 -125.72
2592.369  0.55653 -125.97
2595.582  0.54779 -126.75
2598.795  0.53921 -127.35
2602.008  0.53447 -128.24
2605.221  0.52556 -129.47
2608.434  0.51385 -129.21
2611.647  0.50139 -129.17
2614.859  0.49031 -129.38
2618.072  0.47979 -129.94
2621.285  0.46362 -129.88
2624.498  0.46748 -129.89
2627.711  0.45052 -130.21
2630.924  0.43785 -129.22
2634.137  0.42549 -129.55
2637.349  0.40978 -129.06
2640.562  0.39960 -128.71
2643.775  0.38320 -128.37
2646.988  0.37221 -128.34
2650.201  0.35946 -126.94
2653.414  0.34134 -127.39
2656.627  0.32787 -125.30
2659.839  0.31429 -124.67
2663.052  0.30188 -122.53
2666.265  0.28335 -119.84
2669.478  0.27372 -119.04
2672.691  0.26252 -117.84
2675.904  0.24734 -113.81
2679.116  0.23548 -110.04
2682.329  0.22561 -106.30
2685.542  0.21766 -103.69
2688.755  0.21247  -98.60
2691.968  0.20795  -94.46
2695.181  0.20320  -90.76
2698.394  0.20165  -85.54
2701.606  0.20312  -81.99
2704.819  0.20642  -77.38
2708.032  0.20770  -73.65
2711.245  0.21409  -70.77
2714.458  0.21865  -67.84
2717.671  0.22691  -65.04
2720.884  0.23819  -63.43
2724.096  0.24453  -60.64
2727.309  0.25491  -59.79
2730.522  0.26555  -58.48
2733.735  0.28244  -57.84
2736.948  0.28413  -57.31
2740.161  0.29853  -57.78
2743.373  0.31212  -56.66
2746.586  0.32107  -57.10
2749.799  0.32970  -56.87
2753.012  0.33967  -59.01
2756.225  0.35142  -59.46
2759.438  0.36707  -59.26
2762.651  0.37696  -59.78
2765.863  0.38702  -60.38
2769.076  0.39632  -61.74
2772.289  0.41120  -63.65
2775.502  0.42674  -63.15
2778.715  0.43431  -64.12
2781.928  0.44608  -65.41
2785.141  0.45686  -64.52
2788.353  0.46726  -66.80
2791.566  0.47722  -68.13
2794.779  0.49512  -67.31
2797.992  0.49550  -68.52
2801.205  0.50731  -69.12
2804.418  0.52077  -69.31
2807.631  0.53479  -69.55
2810.843  0.54749  -70.60
2814.056  0.55837  -71.44
2817.269  0.56627  -72.13
2820.482  0.57400  -72.14
2823.695  0.57982  -73.63
2826.908  0.59910  -73.50
2830.120  0.60288  -73.68
2833.333  0.60754  -73.36
2836.546  0.62252  -74.21
2839.759  0.62830  -74.18
2842.972  0.62797  -74.52
2846.185  0.63792  -75.02
2849.398  0.63928  -75.83
2852.610  0.64387  -75.89
2855.823  0.64389  -76.01
2859.036  0.65444  -77.57
2862.249  0.65760  -77.58
2865.462  0.65706  -77.61
2868.675  0.66722  -79.01
2871.888  0.66113  -78.93
2875.100  0.66745  -78.88
2878.313  0.66774  -79.32
2881.526  0.67926  -79.76
2884.739  0.66860  -80.86
2887.952  0.67016  -80.15
2891.165  0.67738  -81.29
2894.378  0.67567  -81.87
2897.590  0.67450  -82.56
2900.803  0.68190  -83.48
2904.016  0.67993  -83.37
2907.229  0.68945  -84.84
2910.442  0.68097  -85.09
2913.655  0.70400  -86.17
2916.867  0.69222  -87.41
2920.080  0.69666  -88.27
2923.293  0.69707  -89.90
2926.506  0.69904  -89.72
2929.719  0.69606  -90.69
2932.932  0.69622  -91.85
2936.145  0.69720  -92.33
2939.357  0.69765  -93.14
2942.570  0.69990  -93.45
2945.783  0.70437  -93.86
2948.996  0.70394  -94.79
2952.209  0.70565  -94.98
2955.422  0.70598  -95.57
2958.635  0.70755  -96.18
2961.847  0.71115  -96.37
2965.060  0.70904  -97.83
2968.273  0.72120  -97.00
2971.486  0.72280  -97.57
2974.699  0.72412  -98.89
2977.912  0.72917  -98.62
2981.124  0.73112  -98.10
2984.337  0.73475 -100.25
2987.550  0.73304  -99.46
2990.763  0.73720  -99.90
2993.976  0.73975 -100.64
2997.189  0.74011 -100.71
3000.402  0.74159 -100.76
3003.614  0.73288 -100.94
3006.827  0.72716 -101.28
3010.040  0.73952 -102.20
3013.253  0.73968 -102.69
3016.466  0.73341 -103.31
3019.679  0.73768 -103.19
3022.892  0.73247 -104.07
3026.104  0.73308 -104.71
3029.317  0.72048 -104.64
3032.530  0.72079 -105.30
3035.743  0.72700 -105.22
3038.956  0.72365 -105.09
3042.169  0.71116 -106.14
3045.382  0.71436 -106.70
3048.594  0.71540 -106.52
3051.807  0.71528 -108.12
3055.020  0.70626 -108.49
3058.233  0.70907 -108.67
3061.446  0.70646 -110.30
3064.659  0.71100 -111.57
3067.871  0.70934 -111.93
3071.084  0.70351 -113.13
3074.297  0.70539 -114.08
3077.510  0.70034 -114.98
3080.723  0.70050 -117.33
3083.936  0.69415 -116.28
3087.149  0.69266 -118.14
3090.361  0.69610 -118.20
3093.574  0.69384 -120.02
3096.787  0.68405 -119.75
3100.000  0.68374 -120.26
