# MHz S MA R 50
!   freq        S11       
1000.000  0.95133  -25.37
1013.655  0.94809  -25.74
1027.309  0.94885  -26.52
1040.964  0.95406  -27.55
1054.618  0.97053  -29.45
1068.273  0.97323  -31.07
1081.928  0.97845  -32.42
1095.582  0.97730  -33.15
1109.237  0.97929  -33.14
1122.892  0.97379  -32.52
1136.546  0.97014  -31.81
1150.201  0.96372  -31.35
1163.855  0.96048  -31.00
1177.510  0.95336  -30.69
1191.165  0.95050  -31.57
1204.819  0.95459  -32.31
1218.474  0.95640  -33.45
1232.129  0.96070  -35.09
1245.783  0.96146  -35.97
1259.438  0.96462  -36.73
1273.092  0.96454  -37.17
1286.747  0.96211  -36.67
1300.402  0.95891  -36.71
1314.056  0.95475  -36.10
1327.711  0.94849  -36.00
1341.365  0.94251  -35.94
1355.020  0.93839  -36.41
1368.675  0.93669  -36.87
1382.329  0.93658  -38.25
1395.984  0.94127  -39.66
1409.639  0.94815  -40.91
1423.293  0.95076  -41.67
1436.948  0.95549  -42.31
1450.602  0.95223  -42.55
1464.257  0.95012  -42.73
1477.912  0.94967  -41.78
1491.566  0.94380  -41.08
1505.221  0.93771  -41.19
1518.876  0.93321  -41.57
1532.530  0.93308  -42.20
1546.185  0.93429  -43.08
1559.839  0.93511  -43.62
1573.494  0.94287  -44.90
1587.149  0.94108  -45.29
1600.803  0.94590  -45.86
1614.458  0.94512  -46.21
1628.112  0.94075  -46.58
1641.767  0.93989  -46.10
1655.422  0.93283  -46.49
1669.076  0.93089  -46.84
1682.731  0.92841  -46.94
1696.386  0.92737  -47.57
1710.040  0.92320  -48.53
1723.695  0.92660  -49.76
1737.349  0.92715  -50.78
1751.004  0.93266  -52.01
1764.659  0.92742  -52.65
1778.313  0.93379  -53.04
1791.968  0.93007  -53.89
1805.622  0.92939  -53.84
1819.277  0.93010  -54.31
1832.932  0.92261  -54.75
1846.586  0.91627  -54.81
1860.241  0.91917  -55.63
1873.896  0.91786  -56.14
1887.550  0.91599  -57.18
1901.205  0.92027  -58.26
1914.859  0.92079  -59.01
1928.514  0.91847  -59.69
1942.169  0.91742  -60.69
1955.823  0.91643  -61.38
1969.478  0.91604  -61.68
1983.133  0.90862  -62.53
1996.787  0.89831  -63.25
2010.442  0.90835  -62.91
2024.096  0.90665  -64.63
2037.751  0.90350  -65.46
2051.406  0.90585  -66.56
2065.060  0.91270  -67.64
2078.715  0.90901  -68.30
2092.369  0.90345  -69.41
2106.024  0.90669  -69.96
2119.679  0.90945  -70.73
2133.333  0.90474  -71.16
2146.988  0.88982  -72.28
2160.643  0.88468  -72.72
2174.297  0.88884  -73.23
2187.952  0.88752  -74.55
2201.606  0.88499  -75.69
2215.261  0.88714  -76.60
2228.916  0.88755  -77.20
2242.570  0.88659  -78.13
2256.225  0.88071  -79.27
2269.880  0.88611  -79.73
2283.534  0.87231  -82.51
2297.189  0.86558  -84.41
2310.843  0.84726  -85.21
2324.498  0.84350  -86.05
2338.153  0.85969  -87.34
2351.807  0.84838  -89.20
2365.462  0.84345  -90.65
2379.116  0.84611  -92.01
2392.771  0.84969  -93.34
2406.426  0.83923  -93.99
2420.080  0.82920  -94.30
2433.735  0.82263  -95.98
2447.390  0.80730  -98.14
2461.044  0.77673  -99.92
2474.699  0.75652 -101.86
2488.353  0.74111 -103.11
2502.008  0.73207 -106.39
2515.663  0.71004 -109.55
2529.317  0.69397 -111.92
2542.972  0.68021 -114.72
2556.627  0.64743 -117.41
2570.281  0.61613 -118.30
2583.936  0.58830 -120.44
2597.590  0.54489 -123.42
2611.245  0.48982 -125.03
2624.900  0.43182 -125.53
2638.554  0.37142 -124.80
2652.209  0.31475 -123.78
2665.863  0.26458 -117.94
2679.518  0.22747 -108.30
2693.173  0.21600  -93.15
2706.827  0.23408  -79.74
2720.482  0.27397  -70.37
2734.137  0.32587  -64.88
2747.791  0.37889  -62.41
2761.446  0.43100  -62.55
2775.100  0.47174  -63.98
2788.755  0.50862  -66.75
2802.410  0.53719  -68.09
2816.064  0.56548  -70.40
2829.719  0.59493  -74.64
2843.373  0.61769  -77.99
2857.028  0.64825  -81.29
2870.683  0.66767  -84.13
2884.337  0.69143  -86.22
2897.992  0.71097  -86.51
2911.647  0.73506  -88.00
2925.301  0.74540  -89.92
2938.956  0.74864  -93.01
2952.610  0.73485  -92.66
2966.265  0.73355  -95.27
2979.920  0.72802  -97.58
2993.574  0.73117 -100.42
3007.229  0.72333 -103.99
3020.884  0.72080 -106.31
3034.538  0.72895 -109.24
3048.193  0.72832 -111.18
3061.847  0.74304 -112.69
3075.502  0.75207 -115.77
3089.157  0.74838 -118.09
3102.811  0.74285 -120.12
3116.466  0.73076 -121.13
3130.120  0.71332 -123.01
3143.775  0.69469 -124.90
3157.430  0.67878 -128.04
3171.084  0.66495 -130.77
3184.739  0.65509 -133.51
3198.394  0.64294 -136.35
3212.048  0.62589 -138.18
3225.703  0.62054 -140.50
3239.357  0.60848 -142.30
3253.012  0.59040 -145.53
3266.667  0.56680 -145.14
3280.321  0.53792 -145.71
3293.976  0.51753 -144.12
3307.631  0.49153 -145.02
3321.285  0.47418 -144.99
3334.940  0.45585 -144.69
3348.594  0.45208 -145.68
3362.249  0.46032 -146.17
3375.904  0.46866 -145.31
3389.558  0.49316 -144.82
3403.213  0.52158 -143.67
3416.867  0.52308 -143.69
3430.522  0.52599 -145.03
3444.177  0.52453 -148.72
3457.831  0.52480 -151.73
3471.486  0.53032 -155.37
3485.141  0.52664 -160.33
3498.795  0.53796 -164.28
3512.450  0.54152 -169.77
3526.104  0.54137 -170.53
3539.759  0.56009 -173.32
3553.414  0.56618 -175.58
3567.068  0.57385 -178.69
3580.723  0.56381  179.54
3594.378  0.55433  175.68
3608.032  0.52487  171.34
3621.687  0.50103  164.85
3635.341  0.49332  159.58
3648.996  0.47712  154.65
3662.651  0.45417  148.22
3676.305  0.44610  142.54
3689.960  0.42362  138.71
3703.614  0.43044  131.24
3717.269  0.41380  126.28
3730.924  0.40309  120.16
3744.578  0.38530  115.51
3758.233  0.36706  108.09
3771.888  0.30121  102.76
3785.542  0.29576   95.76
3799.197  0.29969   84.72
3812.851  0.28056   72.47
3826.506  0.28853   62.00
3840.161  0.30621   55.22
3853.815  0.28958   52.40
3867.470  0.25949   45.81
3881.124  0.23646   35.33
3894.779  0.20895   22.10
3908.434  0.18257    4.62
3922.088  0.19867  -14.14
3935.743  0.22778  -27.02
3949.398  0.25368  -35.57
3963.052  0.29913  -43.47
3976.707  0.29655  -49.77
3990.361  0.30219  -54.98
4004.016  0.29407  -62.65
4017.671  0.27906  -71.01
4031.325  0.29000  -81.36
4044.980  0.30665  -90.23
4058.635  0.32286 -101.20
4072.289  0.35229 -108.46
4085.944  0.38521 -115.94
4099.598  0.40581 -119.33
4113.253  0.43599 -122.76
4126.908  0.43085 -125.04
4140.562  0.42575 -130.60
4154.217  0.42708 -133.98
4167.871  0.41239 -142.31
4181.526  0.40735 -148.07
4195.181  0.42163 -156.50
4208.835  0.44754 -161.51
4222.490  0.44398 -169.54
4236.145  0.48137 -171.17
4249.799  0.50342 -174.75
4263.454  0.50877 -179.68
4277.108  0.49820  177.14
4290.763  0.48654  172.60
4304.418  0.49012  166.51
4318.072  0.49031  162.07
4331.727  0.49781  155.77
4345.382  0.52438  152.95
4359.036  0.55443  150.05
4372.691  0.57333  147.99
4386.345  0.58414  146.37
4400.000  0.57328  142.60
