# MHz S MA R 50
!   freq        S11       
2300.000  0.87328  -86.63
2303.213  0.85555  -86.41
2306.426  0.85183  -87.18
2309.639  0.85254  -87.63
2312.851  0.86035  -88.10
2316.064  0.84764  -88.28
2319.277  0.85790  -88.65
2322.490  0.84336  -88.76
2325.703  0.84899  -89.02
2328.916  0.84519  -89.21
2332.129  0.85511  -89.41
2335.341  0.85182  -89.07
2338.554  0.85225  -90.39
2341.767  0.85904  -90.63
2344.980  0.85310  -90.63
2348.193  0.84873  -91.87
2351.406  0.84448  -91.45
2354.618  0.83957  -92.66
2357.831  0.84601  -91.81
2361.044  0.83609  -92.95
2364.257  0.83063  -93.18
2367.470  0.83857  -93.32
2370.683  0.84644  -93.79
2373.896  0.84003  -94.95
2377.108  0.83841  -95.36
2380.321  0.82691  -94.96
2383.534  0.83012  -95.22
2386.747  0.83764  -95.90
2389.960  0.83205  -96.11
2393.173  0.82833  -96.55
2396.386  0.82784  -96.47
2399.598  0.82958  -97.91
2402.811  0.82146  -96.59
2406.024  0.82327  -96.96
2409.237  0.82096  -97.40
2412.450  0.81765  -98.91
2415.663  0.81965  -99.01
2418.876  0.81590  -99.10
2422.088  0.81411  -98.97
2425.301  0.81157  -99.81
2428.514  0.81289 -100.14
2431.727  0.80428 -100.18
2434.940  0.80655 -100.22
2438.153  0.80313 -101.11
2441.365  0.80545 -102.04
2444.578  0.78475 -102.13
2447.791  0.79433 -102.18
2451.004  0.78588 -102.64
2454.217  0.79184 -102.52
2457.430  0.78845 -103.61
2460.643  0.77752 -103.62
2463.855  0.78064 -104.43
2467.068  0.77400 -104.44
2470.281  0.77188 -104.89
2473.494  0.76902 -105.08
2476.707  0.76764 -104.66
2479.920  0.75873 -104.69
2483.133  0.73926 -106.56
2486.345  0.75187 -106.67
2489.558  0.74035 -107.43
2492.771  0.73955 -107.81
2495.984  0.76116 -109.66
2499.197  0.72927 -109.05
2502.410  0.72122 -109.18
2505.622  0.71897 -109.68
2508.835  0.71287 -110.58
2512.048  0.70700 -111.63
2515.261  0.69936 -112.72
2518.474  0.69388 -113.36
2521.687  0.68597 -112.82
2524.900  0.68046 -114.20
2528.112  0.67721 -115.29
2531.325  0.66717 -116.03
2534.538  0.66336 -116.38
2537.751  0.65412 -116.88
2540.964  0.64666 -117.69
2544.177  0.63643 -117.84
2547.390  0.63692 -119.28
2550.602  0.63597 -120.09
2553.815  0.61219 -120.89
2557.028  0.61013 -121.62
2560.241  0.60370 -122.63
2563.454  0.59839 -122.37
2566.667  0.58885 -123.08
2569.880  0.57700 -124.17
2573.092  0.57322 -125.40
2576.305  0.56542 -124.86
2579.518  0.55708 -125.68
2582.731  0.54452 -126.38
2585.944  0.54156 -127.02
2589.157  0.52945 -127.00
2592.369  0.52130 -128.29
2595.582  0.50584 -128.91
2598.795  0.50280 -128.60
2602.008  0.48909 -130.42
2605.221  0.47571 -130.23
2608.434  0.46691 -130.14
2611.647  0.45142 -131.11
2614.859  0.43156 -130.99
2618.072  0.42376 -130.25
2621.285  0.41583 -130.47
2624.498  0.40018 -129.41
2627.711  0.38766 -129.77
2630.924  0.37090 -130.00
2634.137  0.36154 -128.22
2637.349  0.34990 -127.81
2640.562  0.33754 -125.88
2643.775  0.32416 -124.76
2646.988  0.30758 -123.17
2650.201  0.29417 -122.70
2653.414  0.28315 -119.49
2656.627  0.27243 -119.15
2659.839  0.26197 -116.44
2663.052  0.25303 -114.16
2666.265  0.24368 -111.08
2669.478  0.23313 -106.06
2672.691  0.22913 -103.27
2675.904  0.22613 -102.37
2679.116  0.22355  -97.40
2682.329  0.22166  -93.46
2685.542  0.22298  -91.37
2688.755  0.22513  -87.72
2691.968  0.22883  -83.94
2695.181  0.23011  -81.17
2698.394  0.23849  -78.46
2701.606  0.24983  -76.52
2704.819  0.25449  -73.52
2708.032  0.27126  -72.60
2711.245  0.27317  -70.13
2714.458  0.28402  -69.35
2717.671  0.29091  -67.33
2720.884  0.30267  -66.17
2724.096  0.30957  -65.98
2727.309  0.32588  -64.79
2730.522  0.33550  -63.90
2733.735  0.34760  -64.35
2736.948  0.35583  -63.91
2740.161  0.37143  -64.20
2743.373  0.37946  -64.40
2746.586  0.39400  -64.14
2749.799  0.39953  -64.74
2753.012  0.40639  -64.79
2756.225  0.42135  -65.73
2759.438  0.43157  -65.80
2762.651  0.44177  -66.31
2765.863  0.45088  -65.93
2769.076  0.46272  -67.13
2772.289  0.47363  -66.74
2775.502  0.48300  -67.75
2778.715  0.49237  -68.57
2781.928  0.50056  -68.77
2785.141  0.50361  -68.86
2788.353  0.51647  -70.25
2791.566  0.52340  -69.80
2794.779  0.53530  -71.36
2797.992  0.54173  -70.19
2801.205  0.55108  -71.81
2804.418  0.55781  -71.72
2807.631  0.56233  -72.77
2810.843  0.57551  -72.68
2814.056  0.58699  -72.91
2817.269  0.58759  -73.92
2820.482  0.60267  -73.88
2823.695  0.60188  -75.51
2826.908  0.61269  -75.01
2830.120  0.61682  -76.09
2833.333  0.62470  -76.53
2836.546  0.62765  -77.64
2839.759  0.63548  -77.00
2842.972  0.63558  -77.13
2846.185  0.64590  -78.93
2849.398  0.64571  -79.28
2852.610  0.64758  -79.56
2855.823  0.64961  -80.45
2859.036  0.65488  -80.78
2862.249  0.66407  -81.79
2865.462  0.67055  -81.79
2868.675  0.66578  -81.71
2871.888  0.66932  -83.45
2875.100  0.66710  -83.79
2878.313  0.67264  -84.47
2881.526  0.67507  -84.52
2884.739  0.68000  -85.44
2887.952  0.68592  -85.91
2891.165  0.68508  -86.18
2894.378  0.69120  -86.77
2897.590  0.68972  -87.63
2900.803  0.70050  -86.95
2904.016  0.70092  -86.74
2907.229  0.70643  -88.59
2910.442  0.71159  -90.47
2913.655  0.70772  -91.31
2916.867  0.71512  -90.49
2920.080  0.71170  -91.16
2923.293  0.71647  -91.92
2926.506  0.72073  -92.87
2929.719  0.72278  -94.76
2932.932  0.73462  -94.97
2936.145  0.72036  -94.42
2939.357  0.72295  -95.64
2942.570  0.71814  -95.87
2945.783  0.72176  -96.21
2948.996  0.71530  -97.05
2952.209  0.72602  -97.69
2955.422  0.72787  -96.69
2958.635  0.71920  -97.01
2961.847  0.72862  -98.61
2965.060  0.72297  -98.45
2968.273  0.72920  -99.25
2971.486  0.73844  -99.37
2974.699  0.74348 -100.65
2977.912  0.74330 -101.18
2981.124  0.74571 -101.42
2984.337  0.74402 -101.58
2987.550  0.73766 -101.78
2990.763  0.74207 -102.84
2993.976  0.74238 -103.56
2997.189  0.74052 -103.49
3000.402  0.74450 -103.81
3003.614  0.73453 -104.01
3006.827  0.73766 -104.74
3010.040  0.73094 -104.27
3013.253  0.74185 -105.97
3016.466  0.73446 -105.36
3019.679  0.72711 -106.58
3022.892  0.73594 -106.73
3026.104  0.73245 -107.71
3029.317  0.73278 -109.15
3032.530  0.72480 -109.34
3035.743  0.72110 -109.92
3038.956  0.73195 -110.65
3042.169  0.73257 -111.76
3045.382  0.72837 -110.58
3048.594  0.72829 -111.29
3051.807  0.72680 -111.12
3055.020  0.72745 -111.89
3058.233  0.73138 -112.48
3061.446  0.73203 -113.32
3064.659  0.72672 -114.30
3067.871  0.72925 -114.96
3071.084  0.72872 -115.69
3074.297  0.73096 -116.85
3077.510  0.72478 -116.59
3080.723  0.72069 -116.76
3083.936  0.72337 -118.08
3087.149  0.71610 -118.12
3090.361  0.71695 -120.37
3093.574  0.72048 -119.45
3096.787  0.72054 -119.83
3100.000  0.71112 -121.44
