# MHz S MA R 50
!   freq        S11       
2300.000  0.87138  -84.05
2303.213  0.85691  -82.41
2306.426  0.88239  -84.27
2309.639  0.84865  -84.47
2312.851  0.86044  -84.25
2316.064  0.84824  -84.50
2319.277  0.84860  -84.54
2322.490  0.85588  -84.88
2325.703  0.85367  -84.70
2328.916  0.85299  -85.54
2332.129  0.86230  -84.83
2335.341  0.85590  -85.38
2338.554  0.85987  -86.05
2341.767  0.85492  -85.92
2344.980  0.86081  -86.83
2348.193  0.85520  -86.70
2351.406  0.84870  -86.64
2354.618  0.84838  -87.62
2357.831  0.83662  -87.83
2361.044  0.84563  -88.44
2364.257  0.84296  -88.24
2367.470  0.84194  -88.92
2370.683  0.84938  -89.15
2373.896  0.83441  -88.68
2377.108  0.84504  -89.78
2380.321  0.83613  -89.94
2383.534  0.83188  -90.62
2386.747  0.83130  -90.94
2389.960  0.83137  -90.48
2393.173  0.83111  -91.28
2396.386  0.81429  -92.39
2399.598  0.83029  -92.30
2402.811  0.81818  -91.13
2406.024  0.81977  -92.64
2409.237  0.81829  -92.60
2412.450  0.81940  -93.34
2415.663  0.82593  -92.79
2418.876  0.81867  -93.90
2422.088  0.81893  -94.84
2425.301  0.82185  -95.37
2428.514  0.81145  -94.87
2431.727  0.81528  -95.69
2434.940  0.80930  -96.44
2438.153  0.81074  -96.91
2441.365  0.80633  -97.47
2444.578  0.81030  -97.90
2447.791  0.80584  -98.36
2451.004  0.79262  -97.52
2454.217  0.79915  -99.64
2457.430  0.79038  -99.59
2460.643  0.79097  -99.55
2463.855  0.78978 -100.02
2467.068  0.78264 -100.57
2470.281  0.78208 -100.37
2473.494  0.78411 -100.43
2476.707  0.77049 -102.10
2479.920  0.77776 -101.71
2483.133  0.76441 -100.80
2486.345  0.75387 -102.69
2489.558  0.76609 -102.48
2492.771  0.76709 -102.47
2495.984  0.78026 -105.35
2499.197  0.75073 -103.24
2502.410  0.75318 -105.28
2505.622  0.74108 -104.88
2508.835  0.73475 -105.73
2512.048  0.73480 -107.01
2515.261  0.72081 -107.10
2518.474  0.71792 -107.89
2521.687  0.71881 -108.47
2524.900  0.71105 -108.62
2528.112  0.70222 -108.96
2531.325  0.70445 -110.18
2534.538  0.69102 -110.61
2537.751  0.68844 -111.75
2540.964  0.68515 -111.95
2544.177  0.66581 -112.36
2547.390  0.66365 -112.91
2550.602  0.66286 -113.57
2553.815  0.65672 -114.71
2557.028  0.64623 -116.09
2560.241  0.63766 -116.87
2563.454  0.63738 -117.19
2566.667  0.62735 -117.73
2569.880  0.62378 -118.65
2573.092  0.61564 -119.41
2576.305  0.60924 -119.06
2579.518  0.60303 -120.21
2582.731  0.59687 -121.62
2585.944  0.58851 -122.02
2589.157  0.58003 -122.25
2592.369  0.56857 -124.28
2595.582  0.55831 -124.34
2598.795  0.55263 -124.92
2602.008  0.54243 -126.09
2605.221  0.53172 -125.99
2608.434  0.51992 -125.59
2611.647  0.50697 -127.20
2614.859  0.49446 -126.87
2618.072  0.48470 -127.07
2621.285  0.46964 -127.92
2624.498  0.46097 -128.39
2627.711  0.44887 -128.68
2630.924  0.43920 -127.62
2634.137  0.42152 -128.03
2637.349  0.40712 -127.85
2640.562  0.39627 -127.18
2643.775  0.37956 -127.75
2646.988  0.36748 -127.45
2650.201  0.35278 -126.33
2653.414  0.33598 -126.81
2656.627  0.32157 -124.03
2659.839  0.30799 -123.53
2663.052  0.29549 -122.25
2666.265  0.27926 -120.05
2669.478  0.26479 -118.29
2672.691  0.25922 -119.34
2675.904  0.24130 -114.83
2679.116  0.23255 -112.11
2682.329  0.22170 -108.29
2685.542  0.21236 -104.92
2688.755  0.20653 -100.29
2691.968  0.20777  -97.67
2695.181  0.20169  -93.32
2698.394  0.19855  -88.32
2701.606  0.20153  -85.25
2704.819  0.20118  -80.57
2708.032  0.20849  -76.59
2711.245  0.21441  -74.01
2714.458  0.21858  -70.60
2717.671  0.22499  -67.90
2720.884  0.24172  -65.83
2724.096  0.25194  -62.90
2727.309  0.26027  -61.50
2730.522  0.27086  -60.24
2733.735  0.28537  -59.74
2736.948  0.28939  -58.72
2740.161  0.30748  -58.89
2743.373  0.32031  -57.98
2746.586  0.33164  -57.11
2749.799  0.34242  -57.28
2753.012  0.35381  -59.19
2756.225  0.36419  -58.70
2759.438  0.37873  -59.44
2762.651  0.39205  -58.97
2765.863  0.40171  -59.44
2769.076  0.41000  -60.55
2772.289  0.42304  -61.67
2775.502  0.43690  -62.17
2778.715  0.44378  -62.24
2781.928  0.46221  -63.11
2785.141  0.46559  -62.59
2788.353  0.48051  -64.63
2791.566  0.48585  -64.06
2794.779  0.50427  -64.38
2797.992  0.50250  -65.63
2801.205  0.51016  -66.26
2804.418  0.53235  -66.91
2807.631  0.53723  -67.03
2810.843  0.54413  -69.13
2814.056  0.55906  -69.62
2817.269  0.56769  -69.38
2820.482  0.57276  -70.52
2823.695  0.58115  -71.89
2826.908  0.59351  -71.34
2830.120  0.59931  -72.87
2833.333  0.60380  -73.13
2836.546  0.61681  -73.89
2839.759  0.62301  -73.47
2842.972  0.62476  -74.42
2846.185  0.63097  -73.87
2849.398  0.63327  -76.05
2852.610  0.63861  -74.72
2855.823  0.64228  -76.23
2859.036  0.64619  -77.37
2862.249  0.65319  -77.80
2865.462  0.65570  -78.02
2868.675  0.66171  -78.81
2871.888  0.65930  -78.93
2875.100  0.67077  -79.24
2878.313  0.66940  -80.56
2881.526  0.67931  -80.63
2884.739  0.67092  -81.07
2887.952  0.67739  -80.54
2891.165  0.68694  -81.70
2894.378  0.68120  -82.18
2897.590  0.68598  -82.97
2900.803  0.69326  -83.45
2904.016  0.69358  -83.06
2907.229  0.69826  -84.25
2910.442  0.69321  -85.45
2913.655  0.70195  -86.45
2916.867  0.70468  -86.24
2920.080  0.70799  -87.28
2923.293  0.71970  -88.74
2926.506  0.71885  -88.42
2929.719  0.71567  -88.34
2932.932  0.71230  -89.60
2936.145  0.71232  -89.81
2939.357  0.71377  -91.25
2942.570  0.71195  -91.44
2945.783  0.71489  -92.26
2948.996  0.71631  -92.47
2952.209  0.71468  -93.52
2955.422  0.71348  -93.33
2958.635  0.71239  -94.59
2961.847  0.71863  -94.32
2965.060  0.71518  -96.41
2968.273  0.72381  -95.56
2971.486  0.72393  -96.17
2974.699  0.72616  -96.49
2977.912  0.73009  -96.94
2981.124  0.73449  -97.21
2984.337  0.73366  -97.84
2987.550  0.73046  -98.40
2990.763  0.73325  -99.32
2993.976  0.73436  -99.16
2997.189  0.73443 -100.02
3000.402  0.73620 -100.01
3003.614  0.72878 -100.93
3006.827  0.71983 -100.77
3010.040  0.73252 -101.73
3013.253  0.73271 -102.64
3016.466  0.73057 -103.22
3019.679  0.73145 -103.05
3022.892  0.72608 -104.46
3026.104  0.72717 -104.90
3029.317  0.72345 -105.12
3032.530  0.71571 -105.89
3035.743  0.72574 -105.40
3038.956  0.72444 -105.58
3042.169  0.71271 -106.81
3045.382  0.71754 -107.22
3048.594  0.72075 -107.26
3051.807  0.72175 -108.81
3055.020  0.71712 -108.23
3058.233  0.71804 -109.09
3061.446  0.72018 -109.84
3064.659  0.72452 -111.23
3067.871  0.71769 -111.75
3071.084  0.71870 -113.08
3074.297  0.72163 -113.43
3077.510  0.71505 -114.90
3080.723  0.71554 -115.78
3083.936  0.71316 -114.91
3087.149  0.70707 -117.71
3090.361  0.71208 -117.75
3093.574  0.70246 -118.87
3096.787  0.70088 -118.04
3100.000  0.69799 -118.00
