# MHz S MA R 50
!   freq        S11       
1000.000  1.04403   -9.42
1013.655  1.01323   -4.82
1027.309  0.99822   -3.67
1040.964  0.98723   -5.76
1054.618  1.00351   -3.62
1068.273  1.00016   -3.91
1081.928  0.99553   -4.14
1095.582  0.99258   -4.47
1109.237  0.99427   -4.56
1122.892  0.99227   -4.63
1136.546  0.99401   -4.63
1150.201  0.99662   -4.35
1163.855  0.99851   -4.45
1177.510  0.99849   -4.34
1191.165  0.99724   -4.45
1204.819  0.99780   -4.30
1218.474  1.00019   -4.63
1232.129  0.99887   -4.73
1245.783  0.99713   -4.84
1259.438  0.99737   -4.94
1273.092  0.99803   -5.14
1286.747  0.99691   -5.02
1300.402  0.99478   -5.26
1314.056  0.99742   -5.42
1327.711  1.00032   -5.51
1341.365  1.00127   -5.83
1355.020  0.99811   -5.63
1368.675  0.99712   -5.78
1382.329  0.99829   -5.86
1395.984  0.99646   -5.76
1409.639  0.99835   -5.64
1423.293  0.99849   -5.71
1436.948  0.99791   -6.35
1450.602  0.99982   -5.81
1464.257  0.99841   -6.34
1477.912  1.00053   -6.12
1491.566  1.00403   -6.55
1505.221  0.99825   -6.31
1518.876  0.99715   -6.43
1532.530  0.99651   -6.61
1546.185  0.99513   -6.92
1559.839  0.99699   -6.62
1573.494  0.99817   -6.89
1587.149  0.99765   -7.14
1600.803  0.99770   -6.65
1614.458  0.99904   -7.07
1628.112  1.00033   -7.42
1641.767  0.99744   -7.38
1655.422  0.99928   -7.25
1669.076  0.99835   -7.25
1682.731  0.99714   -7.27
1696.386  0.99772   -6.72
1710.040  0.99381   -7.69
1723.695  0.99375   -7.49
1737.349  0.99456   -8.15
1751.004  0.99458   -8.16
1764.659  0.99889   -7.83
1778.313  0.99693   -8.12
1791.968  0.99906   -8.22
1805.622  0.99849   -8.66
1819.277  0.99566   -9.19
1832.932  0.99769   -8.57
1846.586  0.99757   -8.99
1860.241  0.99833   -8.61
1873.896  0.99966   -9.11
1887.550  0.99895   -9.41
1901.205  0.99958   -9.16
1914.859  0.99771   -9.68
1928.514  0.99854   -9.82
1942.169  0.99720   -9.70
1955.823  0.99853   -9.83
1969.478  1.00036   -9.85
1983.133  0.99800  -10.36
1996.787  0.99949  -10.17
2010.442  0.99910  -10.28
2024.096  1.00216  -10.33
2037.751  0.99949  -10.47
2051.406  0.99988  -10.97
2065.060  0.99915  -10.60
2078.715  1.00108  -11.28
2092.369  0.99908  -11.04
2106.024  0.99821  -11.50
2119.679  1.00028  -11.14
2133.333  1.00086  -11.30
2146.988  1.00146  -10.82
2160.643  0.99762  -11.78
2174.297  0.99762  -11.24
2187.952  1.00206  -11.48
2201.606  1.00365  -11.96
2215.261  1.00449  -11.92
2228.916  0.99780  -12.35
2242.570  1.00204  -12.04
2256.225  0.99917  -12.47
2269.880  0.99960  -12.48
2283.534  1.00487  -12.35
2297.189  1.00199  -12.77
2310.843  1.00092  -13.62
2324.498  1.00260  -13.53
2338.153  0.99762  -13.01
2351.807  1.00438  -14.04
2365.462  0.99694  -14.19
2379.116  1.00533  -13.78
2392.771  1.00131  -14.62
2406.426  1.00014  -15.05
2420.080  1.00072  -14.62
2433.735  0.99946  -13.63
2447.390  0.99811  -14.67
2461.044  1.00244  -15.16
2474.699  0.99822  -15.41
2488.353  0.99991  -15.39
2502.008  1.00457  -14.89
2515.663  1.00483  -15.25
2529.317  1.00395  -15.68
2542.972  0.99595  -16.34
2556.627  1.00461  -16.39
2570.281  0.99869  -16.34
2583.936  0.99978  -16.66
2597.590  1.00362  -16.32
2611.245  1.00202  -17.42
2624.900  0.99337  -16.91
2638.554  0.99940  -17.87
2652.209  0.99982  -17.44
2665.863  1.00545  -18.18
2679.518  1.00158  -18.26
2693.173  1.01347  -19.61
2706.827  1.02347  -19.31
2720.482  1.02988  -19.03
2734.137  1.03513  -19.62
2747.791  1.03516  -19.43
2761.446  1.01860  -18.09
2775.100  1.00669  -18.94
2788.755  1.01505  -18.97
2802.410  0.98881  -21.10
2816.064  1.00102  -20.68
2829.719  0.99952  -20.63
2843.373  1.00644  -21.25
2857.028  1.01623  -21.61
2870.683  1.02045  -22.03
2884.337  1.02495  -22.24
2897.992  1.03391  -22.09
2911.647  1.02866  -20.72
2925.301  1.02940  -22.04
2938.956  1.02978  -22.60
2952.610  1.02214  -22.94
2966.265  0.99036  -22.95
2979.920  1.00089  -23.33
2993.574  0.99917  -23.21
3007.229  1.00105  -24.02
3020.884  1.00805  -24.78
3034.538  1.01289  -24.55
3048.193  1.02224  -25.92
3061.847  1.03222  -25.99
3075.502  1.03059  -26.31
3089.157  1.03575  -26.63
3102.811  1.04088  -26.17
3116.466  1.02742  -27.28
3130.120  1.00907  -26.83
3143.775  1.00768  -27.93
3157.430  1.00431  -26.82
3171.084  1.00049  -27.15
3184.739  1.00118  -27.36
3198.394  1.01039  -29.10
3212.048  1.01521  -29.72
3225.703  1.03363  -30.20
3239.357  1.03870  -30.28
3253.012  1.04551  -29.79
3266.667  1.04509  -28.69
3280.321  1.01853  -30.74
3293.976  1.01628  -30.84
3307.631  1.02180  -31.55
3321.285  1.00997  -32.14
3334.940  1.00962  -31.73
3348.594  1.00408  -32.85
3362.249  1.01190  -33.94
3375.904  1.01873  -34.54
3389.558  1.01651  -33.37
3403.213  1.02961  -33.73
3416.867  1.04838  -33.32
3430.522  1.03691  -34.23
3444.177  1.02614  -34.72
3457.831  1.02136  -35.07
3471.486  1.02390  -38.01
3485.141  1.01366  -37.65
3498.795  1.02121  -38.68
3512.450  1.01618  -39.56
3526.104  1.00887  -39.28
3539.759  1.02335  -39.25
3553.414  1.01853  -41.41
3567.068  1.05869  -41.26
3580.723  1.05996  -41.18
3594.378  1.05637  -43.50
3608.032  1.03936  -43.31
3621.687  1.03845  -43.03
3635.341  1.03526  -43.19
3648.996  1.03031  -46.18
3662.651  1.01551  -46.06
3676.305  1.02066  -45.99
3689.960  1.01030  -49.04
3703.614  0.99403  -47.49
3717.269  1.02012  -49.50
3730.924  1.05321  -48.68
3744.578  1.07649  -51.03
3758.233  1.05605  -51.90
3771.888  1.04713  -51.38
3785.542  1.07745  -53.00
3799.197  1.06971  -55.28
3812.851  1.01927  -56.73
3826.506  1.03674  -57.14
3840.161  0.99890  -57.89
3853.815  0.98264  -60.14
3867.470  1.01304  -60.98
3881.124  1.02411  -62.90
3894.779  1.05746  -63.60
3908.434  1.05308  -63.62
3922.088  1.11238  -66.75
3935.743  1.12375  -64.08
3949.398  1.16947  -65.74
3963.052  1.09277  -65.92
3976.707  1.06316  -69.93
3990.361  1.01892  -72.72
4004.016  1.00448  -75.88
4017.671  0.92377  -85.22
4031.325  0.92779  -89.00
4044.980  1.02729  -91.59
4058.635  1.09717  -94.62
4072.289  1.07846  -92.87
4085.944  1.13811  -88.61
4099.598  1.12106  -85.64
4113.253  1.09150  -89.83
4126.908  1.03937  -93.72
4140.562  1.00603 -104.64
4154.217  0.95237 -116.28
4167.871  0.92713 -128.91
4181.526  0.89329 -140.24
4195.181  0.89155 -152.58
4208.835  0.89196 -166.37
4222.490  0.91287 -178.57
4236.145  0.98368  166.95
4249.799  1.13442  148.71
4263.454  1.16165  132.26
4277.108  1.18721  112.53
4290.763  1.15861  100.35
4304.418  1.05173   81.67
4318.072  0.93256   65.63
4331.727  0.87403   52.26
4345.382  0.90434   42.01
4359.036  0.88058   29.82
4372.691  0.86329   19.31
4386.345  0.88290   13.95
4400.000  0.92305    8.85
