# MHz S MA R 50
!   freq        S11       
1000.000  0.95431  -24.90
1013.655  0.94862  -25.66
1027.309  0.95142  -26.35
1040.964  0.95659  -27.02
1054.618  0.97718  -28.82
1068.273  0.98236  -30.31
1081.928  0.98893  -31.40
1095.582  0.98870  -32.40
1109.237  0.98945  -32.12
1122.892  0.98300  -31.56
1136.546  0.97570  -31.35
1150.201  0.96751  -30.84
1163.855  0.96150  -30.55
1177.510  0.95470  -30.41
1191.165  0.95116  -31.21
1204.819  0.95710  -32.05
1218.474  0.96274  -33.02
1232.129  0.97027  -33.98
1245.783  0.97320  -35.06
1259.438  0.97736  -35.76
1273.092  0.97755  -36.13
1286.747  0.97366  -35.95
1300.402  0.96793  -35.79
1314.056  0.96012  -35.47
1327.711  0.94984  -35.76
1341.365  0.94358  -35.49
1355.020  0.93828  -36.29
1368.675  0.93804  -36.55
1382.329  0.94311  -37.91
1395.984  0.94911  -39.24
1409.639  0.96061  -40.02
1423.293  0.96449  -40.76
1436.948  0.97009  -41.33
1450.602  0.96532  -41.58
1464.257  0.95939  -41.89
1477.912  0.95418  -41.04
1491.566  0.94695  -40.37
1505.221  0.93815  -41.26
1518.876  0.93337  -41.30
1532.530  0.93382  -42.19
1546.185  0.93821  -42.84
1559.839  0.94239  -43.60
1573.494  0.95364  -44.04
1587.149  0.95707  -44.36
1600.803  0.95999  -44.77
1614.458  0.95908  -45.49
1628.112  0.95150  -45.49
1641.767  0.94560  -45.69
1655.422  0.93626  -46.02
1669.076  0.93214  -46.72
1682.731  0.92687  -46.51
1696.386  0.92806  -47.11
1710.040  0.92580  -48.25
1723.695  0.93177  -49.08
1737.349  0.93607  -50.25
1751.004  0.94629  -51.17
1764.659  0.94116  -51.96
1778.313  0.94670  -51.99
1791.968  0.94201  -53.24
1805.622  0.93693  -53.45
1819.277  0.93226  -53.84
1832.932  0.92152  -54.18
1846.586  0.91585  -54.88
1860.241  0.91845  -55.30
1873.896  0.91800  -56.26
1887.550  0.91934  -57.21
1901.205  0.92751  -58.08
1914.859  0.93016  -58.90
1928.514  0.93015  -59.05
1942.169  0.92824  -60.02
1955.823  0.92559  -60.38
1969.478  0.92115  -61.25
1983.133  0.91019  -61.68
1996.787  0.89736  -62.59
2010.442  0.90741  -62.54
2024.096  0.90746  -64.22
2037.751  0.90288  -65.34
2051.406  0.90986  -66.19
2065.060  0.91849  -66.62
2078.715  0.91710  -67.85
2092.369  0.91226  -68.83
2106.024  0.91886  -69.07
2119.679  0.91422  -69.86
2133.333  0.91172  -70.86
2146.988  0.89174  -72.21
2160.643  0.88348  -72.81
2174.297  0.88554  -73.09
2187.952  0.88666  -74.46
2201.606  0.88271  -75.19
2215.261  0.88549  -76.56
2228.916  0.89086  -76.99
2242.570  0.89373  -77.86
2256.225  0.88851  -78.63
2269.880  0.88986  -78.97
2283.534  0.87474  -81.35
2297.189  0.86812  -83.65
2310.843  0.84746  -85.03
2324.498  0.84041  -85.72
2338.153  0.85063  -87.71
2351.807  0.84328  -89.60
2365.462  0.84036  -91.09
2379.116  0.84686  -92.75
2392.771  0.85117  -93.65
2406.426  0.83978  -93.76
2420.080  0.83503  -94.63
2433.735  0.82851  -95.47
2447.390  0.80895  -97.52
2461.044  0.77994  -99.36
2474.699  0.75562 -101.69
2488.353  0.73914 -104.39
2502.008  0.72770 -107.85
2515.663  0.70823 -110.48
2529.317  0.69556 -112.91
2542.972  0.68526 -116.25
2556.627  0.65582 -117.85
2570.281  0.62385 -119.94
2583.936  0.59160 -121.69
2597.590  0.54144 -123.83
2611.245  0.48638 -125.62
2624.900  0.42067 -127.51
2638.554  0.35397 -128.55
2652.209  0.28849 -126.13
2665.863  0.23715 -120.74
2679.518  0.20239 -109.34
2693.173  0.19672  -92.55
2706.827  0.22118  -78.37
2720.482  0.26840  -68.71
2734.137  0.32601  -63.61
2747.791  0.38536  -60.36
2761.446  0.43697  -60.69
2775.100  0.47682  -62.15
2788.755  0.51243  -64.86
2802.410  0.53555  -65.64
2816.064  0.56332  -69.35
2829.719  0.58970  -73.94
2843.373  0.60956  -77.47
2857.028  0.63742  -80.56
2870.683  0.65989  -83.83
2884.337  0.68569  -86.28
2897.992  0.70759  -86.60
2911.647  0.73611  -87.41
2925.301  0.74563  -89.11
2938.956  0.74906  -91.02
2952.610  0.73269  -91.55
2966.265  0.72610  -93.79
2979.920  0.71785  -96.55
2993.574  0.71568  -99.84
3007.229  0.70926 -104.01
3020.884  0.70923 -106.68
3034.538  0.71687 -109.92
3048.193  0.72081 -111.23
3061.847  0.73408 -113.76
3075.502  0.75158 -115.78
3089.157  0.73685 -117.62
3102.811  0.72600 -119.39
3116.466  0.70827 -120.46
3130.120  0.68423 -121.97
3143.775  0.66063 -124.84
3157.430  0.64013 -127.86
3171.084  0.62220 -131.16
3184.739  0.60664 -133.93
3198.394  0.59570 -136.44
3212.048  0.58304 -137.29
3225.703  0.57574 -139.30
3239.357  0.56239 -140.07
3253.012  0.54492 -141.10
3266.667  0.52129 -140.00
3280.321  0.49778 -139.41
3293.976  0.47756 -136.82
3307.631  0.46083 -136.72
3321.285  0.45297 -136.09
3334.940  0.44807 -136.60
3348.594  0.45946 -137.36
3362.249  0.47563 -139.35
3375.904  0.48973 -138.45
3389.558  0.52224 -139.52
3403.213  0.55138 -138.55
3416.867  0.56413 -138.98
3430.522  0.56853 -140.48
3444.177  0.56308 -144.58
3457.831  0.55245 -147.15
3471.486  0.54188 -152.33
3485.141  0.53995 -158.09
3498.795  0.55466 -162.79
3512.450  0.55575 -168.19
3526.104  0.56937 -170.90
3539.759  0.58148 -171.47
3553.414  0.58946 -175.24
3567.068  0.58614 -176.68
3580.723  0.58982 -179.33
3594.378  0.57536  177.75
3608.032  0.53937  173.39
3621.687  0.50786  165.75
3635.341  0.49565  159.55
3648.996  0.48252  153.85
3662.651  0.46025  147.81
3676.305  0.46253  142.20
3689.960  0.44160  137.18
3703.614  0.44693  132.33
3717.269  0.43940  126.96
3730.924  0.42250  122.05
3744.578  0.38980  117.49
3758.233  0.36684  109.80
3771.888  0.30420  103.70
3785.542  0.30051   94.84
3799.197  0.30246   81.67
3812.851  0.28654   69.15
3826.506  0.29857   61.92
3840.161  0.31780   53.38
3853.815  0.30809   49.38
3867.470  0.26868   45.46
3881.124  0.23576   43.49
3894.779  0.19677   24.22
3908.434  0.17294    6.00
3922.088  0.17209  -15.17
3935.743  0.23241  -25.50
3949.398  0.26218  -35.32
3963.052  0.29889  -41.50
3976.707  0.31134  -48.20
3990.361  0.30500  -51.02
4004.016  0.29403  -58.77
4017.671  0.27570  -67.64
4031.325  0.27692  -81.03
4044.980  0.29365  -91.27
4058.635  0.31536 -102.13
4072.289  0.36011 -110.94
4085.944  0.39939 -116.13
4099.598  0.41941 -118.15
4113.253  0.44746 -123.28
4126.908  0.44529 -125.63
4140.562  0.43532 -130.46
4154.217  0.41850 -136.02
4167.871  0.41218 -144.93
4181.526  0.40978 -151.62
4195.181  0.43237 -158.46
4208.835  0.46937 -164.20
4222.490  0.50061 -171.06
4236.145  0.52402 -173.35
4249.799  0.54063 -175.85
4263.454  0.57248  179.57
4277.108  0.53508  177.93
4290.763  0.53705  174.51
4304.418  0.51858  169.94
4318.072  0.51203  163.90
4331.727  0.50944  156.89
4345.382  0.53267  154.11
4359.036  0.55882  148.34
4372.691  0.58743  148.31
4386.345  0.59969  146.45
4400.000  0.58948  145.61
