# MHz S MA R 50
!   freq        S11       
2300.000  0.86714  -85.50
2303.213  0.86195  -85.41
2306.426  0.85463  -86.31
2309.639  0.86042  -86.51
2312.851  0.86594  -86.41
2316.064  0.85135  -86.48
2319.277  0.86350  -86.36
2322.490  0.84402  -87.66
2325.703  0.85042  -87.90
2328.916  0.84526  -88.08
2332.129  0.85262  -87.96
2335.341  0.85682  -87.36
2338.554  0.85848  -88.42
2341.767  0.85881  -89.47
2344.980  0.85215  -89.09
2348.193  0.84997  -89.72
2351.406  0.84932  -89.93
2354.618  0.84764  -90.53
2357.831  0.84335  -91.02
2361.044  0.84063  -91.59
2364.257  0.83725  -91.58
2367.470  0.84274  -91.87
2370.683  0.85177  -92.06
2373.896  0.84277  -92.55
2377.108  0.84854  -94.11
2380.321  0.82987  -93.82
2383.534  0.83644  -93.98
2386.747  0.84894  -94.52
2389.960  0.83259  -94.55
2393.173  0.83406  -95.35
2396.386  0.83384  -95.38
2399.598  0.83731  -96.24
2402.811  0.82817  -95.56
2406.024  0.83445  -96.55
2409.237  0.82738  -95.92
2412.450  0.82734  -96.64
2415.663  0.82840  -96.97
2418.876  0.82288  -97.17
2422.088  0.81866  -97.97
2425.301  0.82479  -98.03
2428.514  0.82116  -98.22
2431.727  0.81701  -98.11
2434.940  0.81378  -97.61
2438.153  0.81270  -98.92
2441.365  0.81515  -99.97
2444.578  0.80102 -100.83
2447.791  0.80609  -99.15
2451.004  0.79634 -100.65
2454.217  0.80351 -100.97
2457.430  0.79945 -102.10
2460.643  0.78816 -101.67
2463.855  0.79344 -101.75
2467.068  0.78722 -102.52
2470.281  0.78668 -102.90
2473.494  0.78448 -102.78
2476.707  0.77395 -102.99
2479.920  0.77314 -102.78
2483.133  0.75490 -104.06
2486.345  0.76412 -105.01
2489.558  0.75676 -105.10
2492.771  0.76089 -105.50
2495.984  0.77841 -107.18
2499.197  0.74827 -106.33
2502.410  0.73970 -106.18
2505.622  0.73950 -107.46
2508.835  0.73360 -107.84
2512.048  0.72803 -108.85
2515.261  0.72449 -110.20
2518.474  0.71651 -110.47
2521.687  0.71216 -110.57
2524.900  0.70583 -111.59
2528.112  0.70149 -112.99
2531.325  0.68795 -112.56
2534.538  0.68961 -113.71
2537.751  0.68257 -114.58
2540.964  0.67265 -115.19
2544.177  0.66554 -115.39
2547.390  0.66753 -116.39
2550.602  0.66139 -117.00
2553.815  0.64756 -117.98
2557.028  0.64629 -118.59
2560.241  0.63776 -119.18
2563.454  0.63134 -119.61
2566.667  0.62594 -120.64
2569.880  0.61312 -121.64
2573.092  0.60979 -122.99
2576.305  0.60361 -122.76
2579.518  0.59808 -122.93
2582.731  0.59101 -123.45
2585.944  0.58606 -124.42
2589.157  0.57295 -124.71
2592.369  0.56376 -125.32
2595.582  0.55574 -126.69
2598.795  0.54800 -126.86
2602.008  0.53906 -127.64
2605.221  0.52866 -128.36
2608.434  0.51599 -128.17
2611.647  0.50875 -128.89
2614.859  0.49053 -129.50
2618.072  0.48178 -128.33
2621.285  0.47210 -128.48
2624.498  0.45861 -129.06
2627.711  0.44796 -129.41
2630.924  0.42755 -129.79
2634.137  0.42024 -129.20
2637.349  0.40511 -129.36
2640.562  0.39535 -127.85
2643.775  0.38232 -127.40
2646.988  0.36766 -126.60
2650.201  0.35110 -126.38
2653.414  0.33684 -125.21
2656.627  0.32369 -125.81
2659.839  0.31257 -123.70
2663.052  0.29874 -122.55
2666.265  0.28305 -120.17
2669.478  0.27147 -118.26
2672.691  0.26016 -115.44
2675.904  0.25376 -115.52
2679.116  0.24260 -111.12
2682.329  0.23114 -107.18
2685.542  0.22768 -105.44
2688.755  0.22190 -101.04
2691.968  0.22237  -97.91
2695.181  0.21775  -94.09
2698.394  0.21938  -90.71
2701.606  0.22494  -87.83
2704.819  0.22252  -83.38
2708.032  0.23262  -80.47
2711.245  0.23355  -77.71
2714.458  0.24127  -75.92
2717.671  0.24996  -72.96
2720.884  0.26246  -70.64
2724.096  0.27100  -69.67
2727.309  0.28407  -67.76
2730.522  0.29493  -67.05
2733.735  0.30665  -66.02
2736.948  0.31552  -65.71
2740.161  0.33006  -64.87
2743.373  0.34205  -64.78
2746.586  0.35440  -64.40
2749.799  0.36586  -64.56
2753.012  0.37777  -63.60
2756.225  0.39001  -65.12
2759.438  0.40413  -64.56
2762.651  0.41510  -65.29
2765.863  0.42598  -65.76
2769.076  0.43816  -65.15
2772.289  0.44955  -67.04
2775.502  0.46349  -66.76
2778.715  0.46884  -67.19
2781.928  0.48017  -68.14
2785.141  0.49199  -68.17
2788.353  0.49278  -69.95
2791.566  0.50911  -69.03
2794.779  0.51971  -69.79
2797.992  0.52549  -70.58
2801.205  0.53402  -71.38
2804.418  0.54425  -71.21
2807.631  0.55390  -70.97
2810.843  0.56111  -72.24
2814.056  0.57295  -73.29
2817.269  0.57923  -73.83
2820.482  0.59305  -73.69
2823.695  0.58827  -74.16
2826.908  0.60527  -75.72
2830.120  0.60800  -76.65
2833.333  0.61648  -75.92
2836.546  0.62485  -77.78
2839.759  0.62593  -77.79
2842.972  0.62765  -77.23
2846.185  0.63560  -78.65
2849.398  0.63465  -78.83
2852.610  0.64313  -79.66
2855.823  0.63863  -79.86
2859.036  0.64705  -80.89
2862.249  0.65540  -81.42
2865.462  0.65919  -81.66
2868.675  0.65562  -81.94
2871.888  0.66349  -83.75
2875.100  0.66306  -83.89
2878.313  0.66857  -84.77
2881.526  0.66645  -85.29
2884.739  0.67421  -85.53
2887.952  0.67830  -86.04
2891.165  0.67603  -86.38
2894.378  0.68143  -87.85
2897.590  0.68428  -88.03
2900.803  0.69438  -87.35
2904.016  0.68988  -87.58
2907.229  0.69662  -89.58
2910.442  0.70455  -90.39
2913.655  0.69925  -91.82
2916.867  0.70897  -91.27
2920.080  0.70512  -91.80
2923.293  0.71047  -93.68
2926.506  0.71659  -92.79
2929.719  0.71615  -95.05
2932.932  0.72724  -95.33
2936.145  0.70652  -95.26
2939.357  0.72020  -95.37
2942.570  0.71297  -96.39
2945.783  0.71718  -96.94
2948.996  0.71209  -96.91
2952.209  0.71395  -97.34
2955.422  0.72576  -96.68
2958.635  0.71186  -98.08
2961.847  0.72099  -98.43
2965.060  0.71884  -98.66
2968.273  0.72111 -100.08
2971.486  0.73376  -98.60
2974.699  0.73697 -100.77
2977.912  0.73847 -101.81
2981.124  0.74000 -102.13
2984.337  0.73403 -102.11
2987.550  0.73082 -102.39
2990.763  0.73668 -102.84
2993.976  0.73804 -103.89
2997.189  0.73650 -103.51
3000.402  0.74003 -104.30
3003.614  0.73162 -105.17
3006.827  0.73271 -105.09
3010.040  0.72451 -105.32
3013.253  0.74044 -106.40
3016.466  0.73238 -106.39
3019.679  0.72216 -106.93
3022.892  0.73696 -107.80
3026.104  0.73164 -108.17
3029.317  0.72450 -110.08
3032.530  0.71836 -109.64
3035.743  0.71838 -110.61
3038.956  0.72185 -110.96
3042.169  0.72505 -112.32
3045.382  0.72494 -110.87
3048.594  0.72224 -111.83
3051.807  0.72873 -111.47
3055.020  0.72455 -112.20
3058.233  0.72894 -113.29
3061.446  0.72543 -113.34
3064.659  0.72371 -114.33
3067.871  0.72894 -115.00
3071.084  0.72293 -115.63
3074.297  0.72716 -117.04
3077.510  0.72216 -117.56
3080.723  0.71627 -117.12
3083.936  0.71533 -118.28
3087.149  0.71886 -118.47
3090.361  0.71638 -120.02
3093.574  0.71596 -120.98
3096.787  0.71746 -121.19
3100.000  0.70969 -121.33
