# MHz S MA R 50
!   freq        S11       
2300.000  0.86227  -83.34
2303.213  0.86257  -82.63
2306.426  0.88431  -83.86
2309.639  0.85755  -83.97
2312.851  0.86155  -84.27
2316.064  0.85145  -84.38
2319.277  0.85757  -84.14
2322.490  0.85543  -83.83
2325.703  0.85374  -84.35
2328.916  0.85864  -84.96
2332.129  0.86360  -84.63
2335.341  0.85757  -85.01
2338.554  0.86055  -85.30
2341.767  0.85562  -86.31
2344.980  0.85587  -86.18
2348.193  0.85553  -85.73
2351.406  0.85190  -86.45
2354.618  0.84062  -86.96
2357.831  0.84899  -87.80
2361.044  0.84316  -87.75
2364.257  0.84475  -87.52
2367.470  0.84517  -88.88
2370.683  0.85099  -88.61
2373.896  0.83737  -88.81
2377.108  0.84851  -89.42
2380.321  0.83826  -89.79
2383.534  0.83086  -89.70
2386.747  0.84484  -91.22
2389.960  0.83816  -90.50
2393.173  0.83659  -90.57
2396.386  0.81764  -92.01
2399.598  0.83590  -91.61
2402.811  0.81964  -91.41
2406.024  0.82332  -93.03
2409.237  0.82094  -92.66
2412.450  0.82089  -92.81
2415.663  0.83789  -93.34
2418.876  0.82448  -93.52
2422.088  0.82229  -94.16
2425.301  0.82748  -94.97
2428.514  0.81796  -94.89
2431.727  0.81447  -95.42
2434.940  0.81705  -95.70
2438.153  0.81582  -96.95
2441.365  0.81553  -96.50
2444.578  0.81261  -96.95
2447.791  0.80919  -97.78
2451.004  0.80252  -97.06
2454.217  0.81058  -99.39
2457.430  0.79608  -98.58
2460.643  0.79586  -99.25
2463.855  0.79762 -100.02
2467.068  0.78670  -99.72
2470.281  0.78427 -100.73
2473.494  0.79225 -100.30
2476.707  0.77626 -100.69
2479.920  0.78059 -101.55
2483.133  0.76762 -100.75
2486.345  0.75733 -102.45
2489.558  0.77277 -101.69
2492.771  0.77204 -101.72
2495.984  0.78135 -105.02
2499.197  0.75773 -103.74
2502.410  0.75792 -104.03
2505.622  0.74508 -104.84
2508.835  0.73936 -105.34
2512.048  0.73803 -106.47
2515.261  0.72948 -107.20
2518.474  0.72209 -106.75
2521.687  0.72162 -107.94
2524.900  0.71644 -107.90
2528.112  0.70482 -108.48
2531.325  0.70678 -110.01
2534.538  0.70412 -110.48
2537.751  0.69354 -111.32
2540.964  0.68535 -111.89
2544.177  0.67274 -112.27
2547.390  0.67181 -112.44
2550.602  0.66733 -113.82
2553.815  0.66230 -114.51
2557.028  0.65078 -116.12
2560.241  0.64298 -117.42
2563.454  0.63489 -117.91
2566.667  0.63040 -117.47
2569.880  0.62861 -118.56
2573.092  0.62048 -118.84
2576.305  0.61638 -119.07
2579.518  0.60839 -120.61
2582.731  0.60171 -120.85
2585.944  0.59252 -122.15
2589.157  0.58536 -122.63
2592.369  0.57499 -123.75
2595.582  0.56796 -123.90
2598.795  0.56107 -124.83
2602.008  0.54571 -125.39
2605.221  0.54104 -126.59
2608.434  0.52519 -126.97
2611.647  0.51644 -126.73
2614.859  0.49994 -126.98
2618.072  0.49236 -127.90
2621.285  0.47395 -127.98
2624.498  0.46880 -128.06
2627.711  0.45982 -128.20
2630.924  0.44605 -128.25
2634.137  0.42989 -128.31
2637.349  0.41655 -128.11
2640.562  0.40176 -127.05
2643.775  0.38503 -129.01
2646.988  0.37380 -128.79
2650.201  0.35918 -127.48
2653.414  0.34188 -127.79
2656.627  0.32851 -125.13
2659.839  0.31391 -125.27
2663.052  0.30125 -125.48
2666.265  0.28408 -122.78
2669.478  0.26810 -120.88
2672.691  0.25938 -120.93
2675.904  0.24699 -118.51
2679.116  0.22916 -113.84
2682.329  0.22139 -111.44
2685.542  0.20947 -108.33
2688.755  0.20927 -104.65
2691.968  0.20019 -100.38
2695.181  0.19518  -96.59
2698.394  0.19273  -91.66
2701.606  0.19366  -87.43
2704.819  0.19228  -82.51
2708.032  0.19638  -78.51
2711.245  0.20224  -74.58
2714.458  0.21296  -71.79
2717.671  0.21595  -68.69
2720.884  0.22594  -66.01
2724.096  0.23481  -62.93
2727.309  0.24669  -61.21
2730.522  0.26102  -59.82
2733.735  0.27220  -58.79
2736.948  0.27976  -58.10
2740.161  0.29204  -58.50
2743.373  0.30933  -56.49
2746.586  0.32008  -57.05
2749.799  0.33352  -56.72
2753.012  0.34411  -57.66
2756.225  0.35390  -57.53
2759.438  0.36956  -58.21
2762.651  0.38059  -56.80
2765.863  0.39128  -57.60
2769.076  0.40232  -59.48
2772.289  0.41616  -60.55
2775.502  0.43561  -60.22
2778.715  0.43506  -60.83
2781.928  0.45046  -61.76
2785.141  0.45695  -61.81
2788.353  0.47531  -62.80
2791.566  0.47699  -63.85
2794.779  0.49370  -63.69
2797.992  0.49475  -64.59
2801.205  0.50235  -64.42
2804.418  0.52246  -65.40
2807.631  0.53000  -66.16
2810.843  0.53851  -68.07
2814.056  0.55527  -68.29
2817.269  0.55937  -68.24
2820.482  0.56477  -68.94
2823.695  0.57457  -69.91
2826.908  0.58815  -71.13
2830.120  0.59348  -71.81
2833.333  0.59755  -72.25
2836.546  0.60504  -71.99
2839.759  0.61768  -72.98
2842.972  0.61953  -74.08
2846.185  0.62783  -73.77
2849.398  0.63186  -75.22
2852.610  0.63572  -74.44
2855.823  0.63282  -74.81
2859.036  0.64308  -76.64
2862.249  0.64840  -76.55
2865.462  0.65197  -77.28
2868.675  0.65692  -77.95
2871.888  0.65651  -78.24
2875.100  0.66386  -78.47
2878.313  0.66287  -78.81
2881.526  0.67368  -79.43
2884.739  0.66946  -79.80
2887.952  0.67124  -79.55
2891.165  0.67676  -81.08
2894.378  0.67570  -80.78
2897.590  0.68347  -81.27
2900.803  0.68995  -82.71
2904.016  0.69106  -81.34
2907.229  0.69664  -83.40
2910.442  0.69078  -84.07
2913.655  0.69700  -85.44
2916.867  0.70315  -85.86
2920.080  0.70481  -86.43
2923.293  0.71505  -88.21
2926.506  0.71168  -88.08
2929.719  0.71363  -88.07
2932.932  0.70583  -89.33
2936.145  0.70467  -89.37
2939.357  0.71193  -90.77
2942.570  0.70722  -90.64
2945.783  0.71162  -91.43
2948.996  0.71028  -91.72
2952.209  0.71345  -92.44
2955.422  0.71215  -92.03
2958.635  0.70921  -93.13
2961.847  0.71526  -93.57
2965.060  0.71292  -94.34
2968.273  0.72300  -94.71
2971.486  0.72449  -94.96
2974.699  0.72766  -95.05
2977.912  0.72919  -95.56
2981.124  0.73014  -95.73
2984.337  0.73199  -97.66
2987.550  0.72785  -96.93
2990.763  0.73386  -98.33
2993.976  0.73779  -99.78
2997.189  0.73373  -98.83
3000.402  0.73377  -98.97
3003.614  0.72663 -100.17
3006.827  0.72111 -100.22
3010.040  0.73153 -101.65
3013.253  0.72944 -101.17
3016.466  0.73059 -102.97
3019.679  0.73018 -102.44
3022.892  0.73011 -103.93
3026.104  0.72475 -103.78
3029.317  0.72102 -104.41
3032.530  0.71771 -104.65
3035.743  0.72706 -104.81
3038.956  0.71754 -105.28
3042.169  0.71296 -105.76
3045.382  0.71595 -106.62
3048.594  0.71977 -105.96
3051.807  0.72234 -107.59
3055.020  0.71426 -107.10
3058.233  0.71648 -107.58
3061.446  0.71671 -109.22
3064.659  0.72132 -110.05
3067.871  0.71658 -110.11
3071.084  0.71673 -112.46
3074.297  0.71678 -112.04
3077.510  0.71651 -113.74
3080.723  0.71544 -114.49
3083.936  0.70931 -114.09
3087.149  0.70456 -115.46
3090.361  0.71011 -116.86
3093.574  0.70835 -117.50
3096.787  0.69530 -117.51
3100.000  0.69882 -117.17
