# MHz S MA R 50
!   freq        S11       
1000.000  0.97829  -32.02
1013.655  0.96437  -28.00
1027.309  0.95330  -26.85
1040.964  0.93858  -28.98
1054.618  1.00339  -25.51
1068.273  0.98171  -25.69
1081.928  0.97175  -26.33
1095.582  0.95977  -27.06
1109.237  0.95738  -28.02
1122.892  0.95680  -28.52
1136.546  0.95381  -29.32
1150.201  0.95235  -29.81
1163.855  0.94955  -30.20
1177.510  0.94785  -30.55
1191.165  0.94323  -30.91
1204.819  0.94686  -30.84
1218.474  0.95263  -30.82
1232.129  0.95385  -31.25
1245.783  0.95170  -31.56
1259.438  0.95358  -31.83
1273.092  0.95005  -32.42
1286.747  0.94720  -32.97
1300.402  0.94421  -34.18
1314.056  0.94272  -35.13
1327.711  0.94434  -36.22
1341.365  0.94087  -36.83
1355.020  0.93617  -36.97
1368.675  0.93591  -37.13
1382.329  0.93885  -37.10
1395.984  0.94329  -36.83
1409.639  0.94310  -36.81
1423.293  0.94528  -36.71
1436.948  0.94312  -37.70
1450.602  0.94181  -37.88
1464.257  0.94039  -39.59
1477.912  0.93857  -40.30
1491.566  0.93977  -41.52
1505.221  0.93134  -42.09
1518.876  0.92787  -42.28
1532.530  0.92599  -42.63
1546.185  0.92496  -43.04
1559.839  0.92841  -42.42
1573.494  0.93275  -42.52
1587.149  0.93376  -42.53
1600.803  0.93499  -43.17
1614.458  0.93126  -43.75
1628.112  0.93125  -44.87
1641.767  0.93095  -46.39
1655.422  0.92858  -47.65
1669.076  0.92843  -48.01
1682.731  0.92590  -47.96
1696.386  0.93436  -47.05
1710.040  0.91973  -48.33
1723.695  0.91646  -49.15
1737.349  0.91755  -48.82
1751.004  0.91970  -49.16
1764.659  0.93526  -48.63
1778.313  0.92784  -49.83
1791.968  0.92057  -51.34
1805.622  0.91969  -52.56
1819.277  0.91326  -54.76
1832.932  0.91580  -55.62
1846.586  0.91677  -56.70
1860.241  0.92061  -57.76
1873.896  0.92740  -58.11
1887.550  0.92388  -58.52
1901.205  0.93000  -57.62
1914.859  0.92273  -57.83
1928.514  0.91827  -57.51
1942.169  0.91280  -58.00
1955.823  0.91242  -58.77
1969.478  0.90844  -60.16
1983.133  0.90063  -62.47
1996.787  0.89560  -64.61
2010.442  0.90300  -65.81
2024.096  0.90812  -66.53
2037.751  0.90614  -67.18
2051.406  0.90774  -67.32
2065.060  0.91555  -66.75
2078.715  0.90945  -66.67
2092.369  0.90652  -66.07
2106.024  0.90655  -66.82
2119.679  0.90064  -67.27
2133.333  0.89238  -69.32
2146.988  0.88364  -72.21
2160.643  0.87415  -73.41
2174.297  0.88187  -75.41
2187.952  0.88715  -76.75
2201.606  0.89622  -78.32
2215.261  0.89886  -77.65
2228.916  0.89649  -78.45
2242.570  0.89500  -77.76
2256.225  0.88509  -76.63
2269.880  0.88557  -78.00
2283.534  0.88436  -78.38
2297.189  0.86560  -81.86
2310.843  0.84390  -83.42
2324.498  0.83718  -86.32
2338.153  0.85240  -89.14
2351.807  0.85920  -92.19
2365.462  0.84863  -92.09
2379.116  0.85543  -92.32
2392.771  0.84611  -93.14
2406.426  0.84222  -92.09
2420.080  0.83324  -92.72
2433.735  0.84695  -90.00
2447.390  0.81211  -95.56
2461.044  0.78258  -98.56
2474.699  0.75426 -101.77
2488.353  0.74528 -105.18
2502.008  0.74304 -108.83
2515.663  0.73553 -111.42
2529.317  0.72414 -113.29
2542.972  0.70706 -114.72
2556.627  0.68792 -115.84
2570.281  0.65984 -115.86
2583.936  0.61795 -117.30
2597.590  0.56648 -119.45
2611.245  0.50217 -122.11
2624.900  0.43748 -125.61
2638.554  0.37909 -129.33
2652.209  0.32817 -131.27
2665.863  0.28086 -131.16
2679.518  0.24104 -125.82
2693.173  0.22012 -116.11
2706.827  0.22944 -100.42
2720.482  0.26619  -85.49
2734.137  0.31784  -75.21
2747.791  0.37810  -68.83
2761.446  0.44430  -61.19
2775.100  0.48319  -59.64
2788.755  0.51024  -60.84
2802.410  0.51729  -62.36
2816.064  0.54341  -66.75
2829.719  0.56196  -71.09
2843.373  0.59467  -76.95
2857.028  0.63849  -81.50
2870.683  0.66546  -85.83
2884.337  0.70299  -89.92
2897.992  0.73897  -91.05
2911.647  0.79367  -89.03
2925.301  0.79351  -90.28
2938.956  0.77057  -92.72
2952.610  0.74988  -91.87
2966.265  0.72652  -92.26
2979.920  0.71699  -96.81
2993.574  0.71275 -102.08
3007.229  0.70869 -105.84
3020.884  0.72034 -110.95
3034.538  0.73767 -115.32
3048.193  0.75105 -117.03
3061.847  0.77454 -119.08
3075.502  0.78997 -121.00
3089.157  0.78668 -122.51
3102.811  0.76566 -121.99
3116.466  0.73456 -122.00
3130.120  0.70874 -122.03
3143.775  0.68308 -126.35
3157.430  0.66336 -129.31
3171.084  0.65071 -133.67
3184.739  0.65103 -138.11
3198.394  0.64423 -142.22
3212.048  0.64230 -143.48
3225.703  0.64828 -145.32
3239.357  0.62766 -146.81
3253.012  0.61053 -146.20
3266.667  0.59279 -143.90
3280.321  0.54432 -142.54
3293.976  0.49633 -143.65
3307.631  0.46630 -145.05
3321.285  0.44220 -145.87
3334.940  0.43876 -147.94
3348.594  0.44629 -149.49
3362.249  0.47006 -149.31
3375.904  0.49896 -147.92
3389.558  0.54130 -145.43
3403.213  0.56747 -143.82
3416.867  0.58072 -145.60
3430.522  0.59559 -142.32
3444.177  0.57502 -146.05
3457.831  0.55007 -149.17
3471.486  0.53291 -154.94
3485.141  0.53454 -158.19
3498.795  0.54277 -163.72
3512.450  0.55678 -168.51
3526.104  0.57302 -172.77
3539.759  0.58833 -175.34
3553.414  0.59693 -177.34
3567.068  0.58342  179.73
3580.723  0.57905  177.34
3594.378  0.55576  173.79
3608.032  0.52481  170.68
3621.687  0.50457  165.03
3635.341  0.48582  158.69
3648.996  0.47665  151.77
3662.651  0.48273  145.07
3676.305  0.49107  143.47
3689.960  0.47992  139.84
3703.614  0.48092  136.69
3717.269  0.46295  133.63
3730.924  0.43161  130.50
3744.578  0.38953  126.29
3758.233  0.34655  117.13
3771.888  0.31620  104.75
3785.542  0.29456   93.95
3799.197  0.29530   85.45
3812.851  0.32371   76.14
3826.506  0.31683   69.95
3840.161  0.31239   66.75
3853.815  0.29452   65.57
3867.470  0.25935   58.36
3881.124  0.21439   46.68
3894.779  0.18092   30.89
3908.434  0.19158    4.43
3922.088  0.20075  -13.28
3935.743  0.24713  -27.09
3949.398  0.29980  -39.30
3963.052  0.31538  -36.89
3976.707  0.31775  -43.21
3990.361  0.28977  -46.32
4004.016  0.27566  -53.65
4017.671  0.24828  -70.01
4031.325  0.25747  -86.41
4044.980  0.30803  -99.88
4058.635  0.37181 -109.11
4072.289  0.42219 -111.93
4085.944  0.49357 -110.16
4099.598  0.52999 -106.42
4113.253  0.52381 -105.03
4126.908  0.51340 -107.72
4140.562  0.47337 -115.81
4154.217  0.43011 -125.91
4167.871  0.40937 -135.33
4181.526  0.41984 -148.84
4195.181  0.42174 -158.91
4208.835  0.46612 -163.34
4222.490  0.52664 -167.42
4236.145  0.60762 -168.43
4249.799  0.71263 -166.79
4263.454  0.76980 -164.19
4277.108  0.80778 -164.10
4290.763  0.77016 -165.61
4304.418  0.72174 -169.54
4318.072  0.63922  177.19
4331.727  0.57650  166.68
4345.382  0.55849  161.37
4359.036  0.56742  152.95
4372.691  0.58077  147.02
4386.345  0.63632  147.55
4400.000  0.70084  146.17
