# MHz S MA R 50
!   freq        S11       
2500.000  0.79329  -95.70
2506.024  0.80333  -96.12
2512.048  0.80490  -96.70
2518.072  0.79023  -98.14
2524.096  0.78883  -97.06
2530.120  0.78324  -97.15
2536.145  0.77269  -97.17
2542.169  0.77789  -97.98
2548.193  0.77192  -98.60
2554.217  0.76428  -99.29
2560.241  0.75170  -99.19
2566.265  0.74977 -100.06
2572.289  0.74640 -100.35
2578.313  0.74179 -100.35
2584.337  0.73858 -101.66
2590.361  0.73703 -102.40
2596.386  0.72763 -103.58
2602.410  0.71390 -105.07
2608.434  0.69612 -105.29
2614.458  0.69459 -107.38
2620.482  0.69364 -107.50
2626.506  0.66962 -107.71
2632.530  0.67441 -109.17
2638.554  0.66653 -110.12
2644.578  0.65828 -110.92
2650.602  0.64914 -111.62
2656.627  0.64554 -111.49
2662.651  0.63305 -113.17
2668.675  0.62286 -114.60
2674.699  0.61706 -114.26
2680.723  0.60745 -114.79
2686.747  0.59758 -115.70
2692.771  0.58908 -115.78
2698.795  0.58188 -116.24
2704.819  0.57033 -116.31
2710.843  0.55872 -115.94
2716.867  0.54106 -116.71
2722.892  0.53038 -116.83
2728.916  0.51896 -115.95
2734.940  0.51012 -116.19
2740.964  0.50397 -114.91
2746.988  0.48864 -116.75
2753.012  0.47568 -117.21
2759.036  0.46891 -117.36
2765.060  0.45771 -116.97
2771.084  0.44845 -117.61
2777.108  0.44194 -117.27
2783.133  0.43441 -116.74
2789.157  0.42799 -118.28
2795.181  0.42449 -117.75
2801.205  0.42037 -118.29
2807.229  0.42025 -117.53
2813.253  0.41961 -117.98
2819.277  0.41870 -117.92
2825.301  0.42179 -118.18
2831.325  0.41718 -116.71
2837.349  0.42082 -117.67
2843.373  0.41576 -116.78
2849.398  0.41740 -116.31
2855.422  0.42593 -116.35
2861.446  0.41762 -115.34
2867.470  0.42066 -115.34
2873.494  0.41648 -114.54
2879.518  0.41513 -113.80
2885.542  0.41018 -112.26
2891.566  0.40865 -112.40
2897.590  0.40678 -111.61
2903.614  0.40098 -111.63
2909.639  0.39609 -111.10
2915.663  0.39286 -110.71
2921.687  0.38642 -110.18
2927.711  0.38500 -110.90
2933.735  0.38094 -110.32
2939.759  0.37297 -109.55
2945.783  0.36348 -109.44
2951.807  0.36001 -109.22
2957.831  0.34887 -110.01
2963.855  0.35477 -109.10
2969.880  0.34870 -110.10
2975.904  0.35135 -109.50
2981.928  0.34947 -109.12
2987.952  0.35061 -109.89
2993.976  0.35251 -108.35
3000.000  0.35061 -108.18
3006.024  0.35484 -107.44
3012.048  0.35305 -107.69
3018.072  0.35628 -106.34
3024.096  0.35876 -104.93
3030.120  0.36122 -104.69
3036.145  0.36508 -103.04
3042.169  0.37296 -102.20
3048.193  0.36408 -101.31
3054.217  0.36716 -100.45
3060.241  0.37018  -99.50
3066.265  0.37449  -99.23
3072.289  0.37478  -98.51
3078.313  0.37438  -97.87
3084.337  0.37618  -98.00
3090.361  0.38280  -99.28
3096.386  0.39249  -97.99
3102.410  0.37662 -100.93
3108.434  0.39202  -99.97
3114.458  0.38923  -99.77
3120.482  0.38708 -100.15
3126.506  0.39087  -98.88
3132.530  0.39912 -100.36
3138.554  0.40186 -101.90
3144.578  0.40904 -104.08
3150.602  0.41235 -104.67
3156.627  0.42192 -106.39
3162.651  0.42123 -106.80
3168.675  0.43851 -109.23
3174.699  0.44484 -109.33
3180.723  0.44810 -109.96
3186.747  0.45775 -111.10
3192.771  0.45869 -110.80
3198.795  0.45798 -111.06
3204.819  0.46771 -111.67
3210.843  0.47672 -112.13
3216.867  0.48067 -111.86
3222.892  0.48481 -112.10
3228.916  0.48176 -113.99
3234.940  0.48794 -114.48
3240.964  0.47866 -114.28
3246.988  0.47663 -114.74
3253.012  0.47659 -114.99
3259.036  0.47137 -116.30
3265.060  0.47017 -116.31
3271.084  0.46145 -118.39
3277.108  0.45891 -119.38
3283.133  0.45534 -121.34
3289.157  0.45749 -118.76
3295.181  0.45643 -121.48
3301.205  0.45634 -125.35
3307.229  0.46077 -125.88
3313.253  0.45686 -126.39
3319.277  0.45636 -128.40
3325.301  0.44905 -129.79
3331.325  0.44868 -130.85
3337.349  0.45856 -132.29
3343.373  0.45711 -133.26
3349.398  0.46093 -133.38
3355.422  0.45658 -136.18
3361.446  0.45850 -137.07
3367.470  0.45963 -136.75
3373.494  0.46553 -137.39
3379.518  0.46388 -138.42
3385.542  0.46707 -138.79
3391.566  0.47086 -139.99
3397.590  0.47011 -142.22
3403.614  0.46693 -140.27
3409.639  0.47168 -141.65
3415.663  0.46311 -142.03
3421.687  0.46590 -142.68
3427.711  0.45726 -143.83
3433.735  0.45469 -146.52
3439.759  0.45497 -145.80
3445.783  0.44965 -147.02
3451.807  0.45023 -149.13
3457.831  0.45614 -149.12
3463.855  0.45318 -152.01
3469.880  0.45230 -152.58
3475.904  0.45286 -153.82
3481.928  0.46213 -154.94
3487.952  0.44788 -155.52
3493.976  0.45558 -157.13
3500.000  0.45071 -157.53
3506.024  0.45468 -159.10
3512.048  0.45113 -160.00
3518.072  0.45708 -160.84
3524.096  0.44883 -160.63
3530.120  0.44727 -162.29
3536.145  0.45918 -162.37
3542.169  0.46892 -163.70
3548.193  0.46097 -164.62
3554.217  0.46027 -165.65
3560.241  0.45913 -166.48
3566.265  0.45402 -167.33
3572.289  0.45614 -168.90
3578.313  0.44177 -169.40
3584.337  0.44716 -171.15
3590.361  0.43941 -170.35
3596.386  0.43787 -174.06
3602.410  0.43369 -173.51
3608.434  0.43733 -175.70
3614.458  0.43214 -175.64
3620.482  0.42599 -177.46
3626.506  0.42643 -178.89
3632.530  0.43371  178.90
3638.554  0.43763  177.90
3644.578  0.43245  175.64
3650.602  0.43083  175.05
3656.627  0.43280  172.52
3662.651  0.43642  172.14
3668.675  0.43192  171.69
3674.699  0.43793  169.37
3680.723  0.42313  167.91
3686.747  0.42985  166.11
3692.771  0.43081  166.30
3698.795  0.43360  164.88
3704.819  0.43647  162.75
3710.843  0.43251  161.38
3716.867  0.42679  159.25
3722.892  0.42158  159.07
3728.916  0.42317  156.88
3734.940  0.43189  154.18
3740.964  0.40807  153.49
3746.988  0.41606  151.90
3753.012  0.42124  149.37
3759.036  0.42006  147.11
3765.060  0.40429  146.61
3771.084  0.40769  144.55
3777.108  0.39976  145.07
3783.133  0.41781  141.27
3789.157  0.41559  139.54
3795.181  0.41088  136.24
3801.205  0.39918  137.85
3807.229  0.40355  132.95
3813.253  0.39044  132.38
3819.277  0.40547  129.13
3825.301  0.41109  128.10
3831.325  0.39739  130.33
3837.349  0.37907  125.23
3843.373  0.35693  125.40
3849.398  0.39764  123.48
3855.422  0.37353  121.89
3861.446  0.36522  118.88
3867.470  0.37431  120.30
3873.494  0.34868  116.02
3879.518  0.35801  112.25
3885.542  0.35299  112.41
3891.566  0.34177  111.25
3897.590  0.36736  106.62
3903.614  0.36710  101.05
3909.639  0.37309   96.32
3915.663  0.33320   93.44
3921.687  0.35167   89.90
3927.711  0.31967   84.53
3933.735  0.31224   86.10
3939.759  0.29832   81.79
3945.783  0.28396   76.33
3951.807  0.27159   74.29
3957.831  0.26491   70.83
3963.855  0.27254   66.29
3969.880  0.25791   65.00
3975.904  0.25615   61.13
3981.928  0.25089   60.89
3987.952  0.23608   56.70
3993.976  0.23019   52.20
4000.000  0.21796   46.10
