# MHz S MA R 50
!   freq        S11       
2500.000  0.75863 -104.69
2506.024  0.75299 -105.96
2512.048  0.74437 -105.21
2518.072  0.72698 -106.02
2524.096  0.72716 -107.34
2530.120  0.71904 -107.76
2536.145  0.70783 -108.87
2542.169  0.69757 -109.71
2548.193  0.68844 -110.58
2554.217  0.67369 -111.66
2560.241  0.65460 -113.07
2566.265  0.64030 -112.88
2572.289  0.62903 -114.62
2578.313  0.61058 -115.44
2584.337  0.59661 -116.79
2590.361  0.58306 -118.10
2596.386  0.55673 -120.52
2602.410  0.52947 -122.53
2608.434  0.51361 -122.69
2614.458  0.49210 -124.73
2620.482  0.47475 -126.60
2626.506  0.44093 -127.41
2632.530  0.42205 -127.56
2638.554  0.39873 -128.94
2644.578  0.37189 -128.93
2650.602  0.34808 -130.46
2656.627  0.31961 -127.82
2662.651  0.29383 -127.27
2668.675  0.26872 -126.66
2674.699  0.24734 -123.66
2680.723  0.22045 -118.63
2686.747  0.20459 -113.36
2692.771  0.18993 -106.33
2698.795  0.18493  -97.15
2704.819  0.18320  -87.11
2710.843  0.18775  -76.95
2716.867  0.19811  -70.03
2722.892  0.21724  -64.00
2728.916  0.23571  -58.94
2734.940  0.26301  -56.07
2740.964  0.28967  -52.99
2746.988  0.30669  -52.69
2753.012  0.32866  -51.39
2759.036  0.34805  -52.13
2765.060  0.37373  -51.58
2771.084  0.39081  -53.37
2777.108  0.41145  -53.07
2783.133  0.42954  -54.47
2789.157  0.44279  -55.99
2795.181  0.45923  -57.72
2801.205  0.47933  -59.35
2807.229  0.49057  -60.59
2813.253  0.51603  -62.28
2819.277  0.53097  -64.46
2825.301  0.54410  -66.92
2831.325  0.56565  -67.84
2837.349  0.57993  -69.68
2843.373  0.59076  -71.92
2849.398  0.60632  -72.16
2855.422  0.61750  -73.07
2861.446  0.63489  -75.42
2867.470  0.64836  -76.15
2873.494  0.65367  -77.20
2879.518  0.66914  -77.68
2885.542  0.67564  -77.88
2891.566  0.68238  -79.15
2897.590  0.69530  -80.19
2903.614  0.69866  -80.58
2909.639  0.70303  -81.62
2915.663  0.70727  -82.93
2921.687  0.70867  -82.92
2927.711  0.71532  -84.60
2933.735  0.72333  -86.34
2939.759  0.72017  -87.50
2945.783  0.71119  -87.05
2951.807  0.70933  -88.63
2957.831  0.70406  -89.87
2963.855  0.71234  -92.46
2969.880  0.70966  -92.30
2975.904  0.71702  -94.29
2981.928  0.72082  -95.12
2987.952  0.72260  -97.46
2993.976  0.72881  -97.52
3000.000  0.72292  -98.68
3006.024  0.73510  -99.84
3012.048  0.72371 -101.28
3018.072  0.73619 -102.12
3024.096  0.73462 -102.08
3030.120  0.73741 -104.10
3036.145  0.73768 -104.35
3042.169  0.74317 -105.08
3048.193  0.72946 -104.84
3054.217  0.73032 -105.89
3060.241  0.73187 -106.43
3066.265  0.73519 -107.18
3072.289  0.73361 -109.01
3078.313  0.72706 -109.83
3084.337  0.71873 -110.56
3090.361  0.70999 -111.37
3096.386  0.70673 -112.80
3102.410  0.69241 -113.75
3108.434  0.69630 -115.70
3114.458  0.69153 -116.94
3120.482  0.68559 -118.15
3126.506  0.68352 -118.25
3132.530  0.68233 -120.45
3138.554  0.67664 -122.73
3144.578  0.67821 -124.64
3150.602  0.67001 -125.64
3156.627  0.67387 -128.04
3162.651  0.65833 -128.48
3168.675  0.66275 -130.37
3174.699  0.65813 -131.41
3180.723  0.65087 -132.58
3186.747  0.64781 -134.02
3192.771  0.64627 -133.91
3198.795  0.63022 -134.96
3204.819  0.62752 -135.41
3210.843  0.62395 -136.74
3216.867  0.61785 -135.42
3222.892  0.61226 -137.57
3228.916  0.60232 -138.25
3234.940  0.58555 -138.84
3240.964  0.57042 -139.82
3246.988  0.55464 -140.05
3253.012  0.53931 -140.92
3259.036  0.52642 -141.64
3265.060  0.50683 -142.15
3271.084  0.49881 -141.85
3277.108  0.48018 -143.68
3283.133  0.47140 -144.86
3289.157  0.46507 -145.40
3295.181  0.45625 -146.10
3301.205  0.44140 -146.24
3307.229  0.43451 -145.92
3313.253  0.42807 -145.95
3319.277  0.42436 -145.42
3325.301  0.42249 -145.71
3331.325  0.41453 -145.96
3337.349  0.42330 -144.40
3343.373  0.41784 -144.99
3349.398  0.41875 -144.10
3355.422  0.41743 -145.05
3361.446  0.42609 -144.56
3367.470  0.43348 -143.55
3373.494  0.44726 -142.09
3379.518  0.45012 -142.40
3385.542  0.46081 -142.14
3391.566  0.46305 -143.63
3397.590  0.48100 -143.99
3403.614  0.48459 -142.31
3409.639  0.48823 -144.13
3415.663  0.48538 -144.99
3421.687  0.49569 -145.75
3427.711  0.48211 -146.28
3433.735  0.48099 -149.66
3439.759  0.49493 -148.92
3445.783  0.49251 -149.82
3451.807  0.49197 -151.83
3457.831  0.51997 -155.23
3463.855  0.51074 -156.36
3469.880  0.52892 -157.50
3475.904  0.52472 -159.65
3481.928  0.53927 -159.76
3487.952  0.54619 -162.27
3493.976  0.55061 -163.64
3500.000  0.53727 -163.92
3506.024  0.54710 -167.06
3512.048  0.54234 -167.34
3518.072  0.55245 -170.04
3524.096  0.55001 -170.24
3530.120  0.55230 -171.88
3536.145  0.55954 -174.22
3542.169  0.57106 -174.25
3548.193  0.56241 -176.44
3554.217  0.55594 -178.11
3560.241  0.54503  179.55
3566.265  0.54058 -179.27
3572.289  0.54342  178.46
3578.313  0.53754  175.94
3584.337  0.53961  173.00
3590.361  0.53480  171.11
3596.386  0.53285  169.65
3602.410  0.51903  167.40
3608.434  0.52846  165.75
3614.458  0.51861  163.22
3620.482  0.51009  160.65
3626.506  0.51096  157.66
3632.530  0.51185  156.22
3638.554  0.50577  154.97
3644.578  0.50849  152.32
3650.602  0.50093  150.27
3656.627  0.49507  147.84
3662.651  0.49015  145.88
3668.675  0.48084  144.96
3674.699  0.49245  141.79
3680.723  0.47382  140.04
3686.747  0.47903  138.13
3692.771  0.45542  135.26
3698.795  0.45993  134.90
3704.819  0.45651  131.36
3710.843  0.44318  127.77
3716.867  0.44018  127.09
3722.892  0.44313  123.92
3728.916  0.42589  124.76
3734.940  0.41743  121.23
3740.964  0.40965  119.76
3746.988  0.41106  115.42
3753.012  0.41095  110.93
3759.036  0.41148  109.17
3765.060  0.38551  108.04
3771.084  0.37765  104.21
3777.108  0.37695  102.04
3783.133  0.37205   97.02
3789.157  0.37083   92.98
3795.181  0.36853   90.24
3801.205  0.35192   88.25
3807.229  0.35061   83.84
3813.253  0.34432   82.23
3819.277  0.35222   78.68
3825.301  0.33655   74.46
3831.325  0.32569   76.16
3837.349  0.31801   68.82
3843.373  0.29177   67.19
3849.398  0.30232   70.67
3855.422  0.28560   58.47
3861.446  0.27441   54.64
3867.470  0.26462   55.91
3873.494  0.25785   46.21
3879.518  0.26722   39.05
3885.542  0.27093   35.86
3891.566  0.24281   32.03
3897.590  0.25023   34.76
3903.614  0.26201   19.02
3909.639  0.26219   11.81
3915.663  0.27032    2.36
3921.687  0.26135    0.20
3927.711  0.27485  -10.70
3933.735  0.24006  -17.40
3939.759  0.24061  -18.46
3945.783  0.25664  -24.21
3951.807  0.24534  -29.65
3957.831  0.24282  -34.13
3963.855  0.23699  -34.22
3969.880  0.23324  -37.10
3975.904  0.23321  -41.70
3981.928  0.23136  -45.66
3987.952  0.23626  -50.83
3993.976  0.23966  -53.85
4000.000  0.24042  -59.36
