# MHz S MA R 50
!   freq        S11       
2500.000  0.74366  -92.21
2506.024  0.75285  -93.05
2512.048  0.75185  -91.35
2518.072  0.74080  -93.05
2524.096  0.74283  -93.07
2530.120  0.74416  -93.01
2536.145  0.73743  -93.37
2542.169  0.74300  -93.73
2548.193  0.73206  -93.64
2554.217  0.73121  -94.25
2560.241  0.72245  -94.77
2566.265  0.72155  -94.97
2572.289  0.71679  -95.08
2578.313  0.71347  -95.49
2584.337  0.71054  -96.01
2590.361  0.71445  -97.18
2596.386  0.70625  -98.41
2602.410  0.69250  -98.72
2608.434  0.68300  -99.67
2614.458  0.68123 -100.56
2620.482  0.67752 -102.24
2626.506  0.66030 -102.25
2632.530  0.66358 -103.38
2638.554  0.65899 -104.29
2644.578  0.65600 -104.02
2650.602  0.64490 -105.84
2656.627  0.65251 -105.26
2662.651  0.63831 -106.94
2668.675  0.63016 -108.12
2674.699  0.62697 -108.27
2680.723  0.62012 -108.74
2686.747  0.61328 -109.86
2692.771  0.60790 -110.74
2698.795  0.59834 -110.54
2704.819  0.59393 -110.74
2710.843  0.58127 -110.58
2716.867  0.56803 -111.74
2722.892  0.55697 -112.36
2728.916  0.54849 -112.01
2734.940  0.53741 -112.75
2740.964  0.53091 -111.67
2746.988  0.51645 -113.58
2753.012  0.50092 -114.50
2759.036  0.48922 -115.10
2765.060  0.47550 -115.00
2771.084  0.46084 -116.23
2777.108  0.45527 -117.01
2783.133  0.44373 -115.54
2789.157  0.43239 -116.04
2795.181  0.42410 -117.05
2801.205  0.41870 -117.80
2807.229  0.40875 -116.24
2813.253  0.40365 -117.59
2819.277  0.39916 -117.30
2825.301  0.39466 -117.26
2831.325  0.39006 -116.06
2837.349  0.38429 -115.23
2843.373  0.38429 -114.95
2849.398  0.37397 -112.60
2855.422  0.37895 -111.75
2861.446  0.37170 -110.32
2867.470  0.37362 -108.58
2873.494  0.36585 -107.28
2879.518  0.36825 -105.20
2885.542  0.36832 -102.37
2891.566  0.36631 -101.50
2897.590  0.36856 -100.31
2903.614  0.36870  -98.05
2909.639  0.37160  -96.98
2915.663  0.36946  -95.32
2921.687  0.37336  -93.69
2927.711  0.37948  -93.76
2933.735  0.38451  -92.07
2939.759  0.38483  -91.63
2945.783  0.37587  -91.60
2951.807  0.39186  -90.36
2957.831  0.38896  -89.63
2963.855  0.40403  -89.94
2969.880  0.40523  -91.04
2975.904  0.41708  -90.20
2981.928  0.42270  -90.66
2987.952  0.43247  -90.61
2993.976  0.44613  -90.96
3000.000  0.45035  -91.26
3006.024  0.46307  -92.63
3012.048  0.46631  -92.48
3018.072  0.47977  -92.61
3024.096  0.48850  -91.89
3030.120  0.50322  -93.53
3036.145  0.50710  -93.21
3042.169  0.51673  -94.20
3048.193  0.51577  -93.59
3054.217  0.52255  -93.75
3060.241  0.53051  -94.34
3066.265  0.53745  -94.99
3072.289  0.53946  -95.52
3078.313  0.54298  -96.38
3084.337  0.53583  -97.23
3090.361  0.53744  -97.43
3096.386  0.54540  -97.94
3102.410  0.53217  -99.56
3108.434  0.54272 -100.49
3114.458  0.54625 -102.75
3120.482  0.54197 -103.33
3126.506  0.54467 -103.45
3132.530  0.55353 -105.01
3138.554  0.55506 -107.28
3144.578  0.56167 -108.83
3150.602  0.56345 -109.16
3156.627  0.57139 -111.89
3162.651  0.57289 -113.61
3168.675  0.57378 -114.88
3174.699  0.58233 -114.84
3180.723  0.58150 -116.20
3186.747  0.58434 -117.99
3192.771  0.58907 -117.90
3198.795  0.58583 -118.39
3204.819  0.58882 -119.58
3210.843  0.59652 -119.20
3216.867  0.59859 -119.20
3222.892  0.60272 -120.69
3228.916  0.59676 -121.81
3234.940  0.59588 -123.28
3240.964  0.58851 -123.25
3246.988  0.58083 -124.60
3253.012  0.57658 -125.14
3259.036  0.56690 -126.14
3265.060  0.56238 -126.03
3271.084  0.55815 -128.16
3277.108  0.55210 -129.42
3283.133  0.54681 -131.41
3289.157  0.54628 -130.58
3295.181  0.54243 -134.89
3301.205  0.53706 -135.69
3307.229  0.54338 -137.16
3313.253  0.54314 -138.50
3319.277  0.53279 -139.75
3325.301  0.53475 -141.12
3331.325  0.52344 -142.96
3337.349  0.53209 -144.08
3343.373  0.52809 -145.54
3349.398  0.52304 -145.91
3355.422  0.52161 -148.69
3361.446  0.51771 -149.58
3367.470  0.51837 -149.75
3373.494  0.51909 -149.02
3379.518  0.52363 -150.05
3385.542  0.51962 -151.89
3391.566  0.51130 -152.69
3397.590  0.51534 -154.46
3403.614  0.50364 -153.83
3409.639  0.50160 -154.89
3415.663  0.49380 -155.98
3421.687  0.48643 -156.29
3427.711  0.48074 -157.06
3433.735  0.47848 -159.30
3439.759  0.46725 -160.03
3445.783  0.46516 -160.45
3451.807  0.46466 -162.01
3457.831  0.46640 -164.26
3463.855  0.45823 -164.58
3469.880  0.45461 -165.92
3475.904  0.45300 -167.52
3481.928  0.46252 -168.16
3487.952  0.44394 -169.09
3493.976  0.44598 -170.20
3500.000  0.44199 -170.65
3506.024  0.44420 -172.22
3512.048  0.43733 -172.29
3518.072  0.43696 -173.38
3524.096  0.43218 -172.99
3530.120  0.42587 -173.62
3536.145  0.42242 -174.53
3542.169  0.43610 -174.11
3548.193  0.43232 -175.60
3554.217  0.42912 -176.37
3560.241  0.42361 -178.20
3566.265  0.41879 -177.38
3572.289  0.41177 -179.14
3578.313  0.40982 -178.36
3584.337  0.40421  179.53
3590.361  0.40107  177.83
3596.386  0.39909  178.07
3602.410  0.39237  176.14
3608.434  0.39246  175.09
3614.458  0.38723  173.00
3620.482  0.38837  171.94
3626.506  0.37638  169.43
3632.530  0.38200  170.10
3638.554  0.38718  168.41
3644.578  0.38143  166.32
3650.602  0.38351  165.39
3656.627  0.37669  161.63
3662.651  0.37972  163.13
3668.675  0.37869  163.42
3674.699  0.37810  159.53
3680.723  0.36706  158.36
3686.747  0.37637  158.17
3692.771  0.36224  157.95
3698.795  0.36117  154.64
3704.819  0.36931  154.72
3710.843  0.36176  152.87
3716.867  0.35518  151.83
3722.892  0.35868  149.69
3728.916  0.35239  149.35
3734.940  0.35701  144.20
3740.964  0.33953  144.54
3746.988  0.34472  143.38
3753.012  0.35068  139.48
3759.036  0.34380  138.62
3765.060  0.32027  138.73
3771.084  0.31612  136.90
3777.108  0.32412  135.05
3783.133  0.32359  133.77
3789.157  0.33051  130.13
3795.181  0.32382  127.90
3801.205  0.31724  127.46
3807.229  0.31273  123.60
3813.253  0.30119  122.22
3819.277  0.30990  120.34
3825.301  0.30266  119.41
3831.325  0.30744  119.77
3837.349  0.29243  116.51
3843.373  0.26820  117.58
3849.398  0.29122  115.83
3855.422  0.26990  115.01
3861.446  0.25375  109.58
3867.470  0.26918  110.62
3873.494  0.25009  108.47
3879.518  0.24278  106.61
3885.542  0.25088  102.35
3891.566  0.22094  102.72
3897.590  0.25998  100.48
3903.614  0.23146   94.44
3909.639  0.24715   89.43
3915.663  0.21762   84.02
3921.687  0.20910   81.21
3927.711  0.20619   73.63
3933.735  0.18453   78.06
3939.759  0.17853   72.11
3945.783  0.16428   62.55
3951.807  0.16118   59.74
3957.831  0.15809   56.96
3963.855  0.14686   50.98
3969.880  0.14580   48.59
3975.904  0.13974   45.80
3981.928  0.13192   47.42
3987.952  0.12286   36.61
3993.976  0.12375   37.67
4000.000  0.11238   30.62
