# MHz S MA R 50
!   freq        S11       
2500.000  0.68253  -96.03
2506.024  0.69282  -95.21
2512.048  0.68849  -95.31
2518.072  0.67702  -95.86
2524.096  0.67828  -96.16
2530.120  0.67309  -96.29
2536.145  0.66282  -96.24
2542.169  0.66101  -95.74
2548.193  0.65247  -96.10
2554.217  0.64315  -96.30
2560.241  0.62901  -96.42
2566.265  0.62736  -96.62
2572.289  0.62461  -96.37
2578.313  0.61578  -96.36
2584.337  0.60587  -96.92
2590.361  0.60424  -97.32
2596.386  0.59586  -97.50
2602.410  0.58084  -97.18
2608.434  0.57271  -98.07
2614.458  0.56814  -99.15
2620.482  0.56405  -99.14
2626.506  0.55086  -98.88
2632.530  0.54876  -99.95
2638.554  0.54749  -99.41
2644.578  0.54134  -98.70
2650.602  0.53665 -101.13
2656.627  0.53530  -98.81
2662.651  0.52917 -100.45
2668.675  0.52294 -100.65
2674.699  0.52288 -101.02
2680.723  0.51663  -99.88
2686.747  0.50966 -100.28
2692.771  0.50769 -100.22
2698.795  0.50503 -100.36
2704.819  0.49954  -99.68
2710.843  0.49370  -98.62
2716.867  0.49138  -98.29
2722.892  0.48251  -98.15
2728.916  0.47494  -97.04
2734.940  0.47660  -96.45
2740.964  0.47309  -94.80
2746.988  0.46572  -95.65
2753.012  0.46143  -96.20
2759.036  0.45606  -95.92
2765.060  0.44967  -95.38
2771.084  0.44765  -93.83
2777.108  0.44512  -95.18
2783.133  0.44553  -94.42
2789.157  0.44227  -95.67
2795.181  0.43928  -95.13
2801.205  0.44536  -94.67
2807.229  0.44731  -94.86
2813.253  0.45171  -95.60
2819.277  0.45772  -95.18
2825.301  0.46419  -96.34
2831.325  0.46822  -95.46
2837.349  0.47371  -95.63
2843.373  0.47863  -95.85
2849.398  0.48979  -95.74
2855.422  0.48950  -94.81
2861.446  0.49710  -94.89
2867.470  0.50724  -94.99
2873.494  0.50498  -93.70
2879.518  0.51120  -94.26
2885.542  0.51822  -92.60
2891.566  0.52075  -92.75
2897.590  0.52987  -91.88
2903.614  0.53002  -92.64
2909.639  0.53596  -91.74
2915.663  0.53299  -92.63
2921.687  0.53472  -92.63
2927.711  0.54287  -92.75
2933.735  0.54423  -92.46
2939.759  0.55001  -93.28
2945.783  0.53864  -93.67
2951.807  0.54344  -93.88
2957.831  0.53898  -94.67
2963.855  0.54947  -95.18
2969.880  0.54718  -96.44
2975.904  0.55739  -96.92
2981.928  0.55762  -97.94
2987.952  0.56139  -98.97
2993.976  0.57215  -99.23
3000.000  0.56933  -99.61
3006.024  0.57907 -100.60
3012.048  0.56850 -100.98
3018.072  0.59262 -102.17
3024.096  0.59118 -101.72
3030.120  0.59201 -102.98
3036.145  0.59567 -102.83
3042.169  0.59957 -103.71
3048.193  0.59559 -103.18
3054.217  0.59875 -103.68
3060.241  0.60151 -103.80
3066.265  0.60514 -104.43
3072.289  0.60273 -106.50
3078.313  0.60458 -105.75
3084.337  0.59495 -106.75
3090.361  0.58649 -107.77
3096.386  0.59047 -108.98
3102.410  0.57263 -110.15
3108.434  0.58670 -111.18
3114.458  0.58378 -110.95
3120.482  0.57867 -112.83
3126.506  0.57475 -113.63
3132.530  0.58507 -115.54
3138.554  0.58080 -117.13
3144.578  0.58134 -117.75
3150.602  0.58060 -119.06
3156.627  0.58456 -120.53
3162.651  0.58415 -122.56
3168.675  0.58764 -123.68
3174.699  0.58580 -123.65
3180.723  0.58427 -124.76
3186.747  0.58205 -125.68
3192.771  0.58552 -125.91
3198.795  0.58062 -126.38
3204.819  0.58328 -126.89
3210.843  0.58363 -127.34
3216.867  0.58652 -126.75
3222.892  0.58448 -127.98
3228.916  0.57790 -128.58
3234.940  0.57072 -129.00
3240.964  0.56353 -129.37
3246.988  0.54960 -131.07
3253.012  0.54165 -131.07
3259.036  0.53899 -131.51
3265.060  0.52911 -131.83
3271.084  0.52213 -134.46
3277.108  0.52238 -135.35
3283.133  0.50933 -136.69
3289.157  0.51404 -136.00
3295.181  0.51192 -138.10
3301.205  0.50168 -139.24
3307.229  0.50336 -139.77
3313.253  0.50048 -140.48
3319.277  0.49536 -142.11
3325.301  0.49546 -143.92
3331.325  0.48701 -145.00
3337.349  0.49270 -145.56
3343.373  0.49387 -146.88
3349.398  0.49026 -146.89
3355.422  0.48776 -148.55
3361.446  0.48919 -149.41
3367.470  0.48851 -150.01
3373.494  0.49189 -149.27
3379.518  0.49686 -149.00
3385.542  0.48925 -150.98
3391.566  0.48863 -152.27
3397.590  0.49485 -152.99
3403.614  0.48078 -151.95
3409.639  0.48016 -153.39
3415.663  0.48218 -153.53
3421.687  0.47489 -154.37
3427.711  0.47578 -154.49
3433.735  0.47097 -156.62
3439.759  0.46701 -156.42
3445.783  0.47165 -158.89
3451.807  0.46211 -158.46
3457.831  0.47111 -160.75
3463.855  0.47006 -161.51
3469.880  0.46358 -162.77
3475.904  0.46650 -164.12
3481.928  0.46992 -164.05
3487.952  0.46718 -165.79
3493.976  0.47660 -166.27
3500.000  0.47200 -167.00
3506.024  0.47193 -168.34
3512.048  0.46784 -169.73
3518.072  0.47351 -169.92
3524.096  0.46381 -170.10
3530.120  0.46249 -171.36
3536.145  0.47368 -171.25
3542.169  0.47770 -172.60
3548.193  0.47329 -174.29
3554.217  0.47417 -175.11
3560.241  0.46560 -175.54
3566.265  0.46378 -177.25
3572.289  0.45725 -177.53
3578.313  0.45018 -178.48
3584.337  0.45696 -179.98
3590.361  0.44647  178.27
3596.386  0.44157  177.22
3602.410  0.43948  176.07
3608.434  0.44047  174.82
3614.458  0.43269  174.60
3620.482  0.43235  170.50
3626.506  0.42662  169.10
3632.530  0.42673  169.13
3638.554  0.43188  166.58
3644.578  0.43630  165.30
3650.602  0.42927  163.65
3656.627  0.42801  161.23
3662.651  0.42963  160.70
3668.675  0.42199  159.69
3674.699  0.42633  157.58
3680.723  0.41532  156.38
3686.747  0.40767  153.80
3692.771  0.41302  154.79
3698.795  0.41298  153.65
3704.819  0.41733  152.19
3710.843  0.39985  149.02
3716.867  0.40400  147.45
3722.892  0.40620  147.76
3728.916  0.39432  145.67
3734.940  0.40228  141.69
3740.964  0.37981  143.03
3746.988  0.38807  139.26
3753.012  0.38598  137.93
3759.036  0.38426  134.86
3765.060  0.36873  134.52
3771.084  0.36452  133.34
3777.108  0.36984  131.90
3783.133  0.37254  129.40
3789.157  0.35619  126.22
3795.181  0.36073  123.95
3801.205  0.34911  124.21
3807.229  0.35100  120.60
3813.253  0.34509  120.20
3819.277  0.35303  118.47
3825.301  0.35387  116.47
3831.325  0.33150  117.91
3837.349  0.31491  114.14
3843.373  0.31105  114.32
3849.398  0.32430  114.98
3855.422  0.29593  110.27
3861.446  0.29310  109.94
3867.470  0.29485  110.56
3873.494  0.27809  103.29
3879.518  0.27295  103.34
3885.542  0.28539  102.67
3891.566  0.25727  101.91
3897.590  0.30667   97.69
3903.614  0.28387   93.31
3909.639  0.27398   85.52
3915.663  0.25146   83.36
3921.687  0.25670   82.78
3927.711  0.23922   73.99
3933.735  0.20423   75.97
3939.759  0.21345   73.86
3945.783  0.21093   67.35
3951.807  0.18669   65.40
3957.831  0.19034   58.59
3963.855  0.17797   56.98
3969.880  0.17758   55.88
3975.904  0.17206   53.73
3981.928  0.16123   51.72
3987.952  0.15017   45.37
3993.976  0.14800   45.50
4000.000  0.13961   42.84
