# MHz S MA R 50
!   freq        S11       
2500.000  0.73578  -98.00
2506.024  0.73954  -97.50
2512.048  0.74178  -97.81
2518.072  0.72044  -98.08
2524.096  0.72672  -98.32
2530.120  0.72387  -97.83
2536.145  0.71638  -99.04
2542.169  0.71321  -98.48
2548.193  0.70545  -99.22
2554.217  0.70162  -99.00
2560.241  0.68852 -100.14
2566.265  0.68210 -100.31
2572.289  0.68088 -100.43
2578.313  0.67137 -100.47
2584.337  0.66187 -101.85
2590.361  0.66295 -102.12
2596.386  0.64547 -103.35
2602.410  0.63841 -103.22
2608.434  0.62802 -104.41
2614.458  0.62162 -105.89
2620.482  0.61258 -106.86
2626.506  0.60244 -106.54
2632.530  0.59903 -107.77
2638.554  0.58916 -108.58
2644.578  0.58147 -109.26
2650.602  0.56878 -109.96
2656.627  0.57144 -109.76
2662.651  0.55486 -110.27
2668.675  0.54607 -111.97
2674.699  0.54090 -111.64
2680.723  0.53027 -111.69
2686.747  0.52202 -112.43
2692.771  0.51472 -112.23
2698.795  0.49946 -112.15
2704.819  0.48639 -111.49
2710.843  0.47939 -111.41
2716.867  0.46641 -111.70
2722.892  0.45777 -110.73
2728.916  0.44368 -109.89
2734.940  0.43433 -110.36
2740.964  0.42888 -108.28
2746.988  0.41396 -108.82
2753.012  0.40511 -109.42
2759.036  0.39022 -108.78
2765.060  0.38291 -107.64
2771.084  0.37614 -107.45
2777.108  0.36417 -107.14
2783.133  0.36101 -105.85
2789.157  0.35321 -105.81
2795.181  0.34981 -105.21
2801.205  0.35080 -104.44
2807.229  0.34733 -103.44
2813.253  0.34997 -103.13
2819.277  0.34675 -101.15
2825.301  0.35529 -101.19
2831.325  0.35852  -99.76
2837.349  0.36533 -100.12
2843.373  0.36837  -98.60
2849.398  0.37162  -96.58
2855.422  0.38006  -95.81
2861.446  0.38284  -94.13
2867.470  0.39581  -93.67
2873.494  0.39752  -92.11
2879.518  0.40670  -91.50
2885.542  0.41860  -89.18
2891.566  0.41894  -89.73
2897.590  0.43150  -88.42
2903.614  0.43672  -87.75
2909.639  0.44082  -87.96
2915.663  0.44486  -86.88
2921.687  0.44947  -86.38
2927.711  0.45802  -87.64
2933.735  0.45706  -87.08
2939.759  0.46916  -87.73
2945.783  0.46819  -87.35
2951.807  0.47239  -87.99
2957.831  0.46305  -88.95
2963.855  0.48096  -89.30
2969.880  0.48094  -89.94
2975.904  0.49162  -91.37
2981.928  0.49396  -91.43
2987.952  0.49913  -92.98
2993.976  0.50950  -92.72
3000.000  0.50962  -93.84
3006.024  0.52333  -95.22
3012.048  0.51833  -95.60
3018.072  0.53159  -96.36
3024.096  0.53767  -96.32
3030.120  0.53787  -97.60
3036.145  0.54615  -97.49
3042.169  0.55444  -98.17
3048.193  0.54566  -97.58
3054.217  0.54757  -98.00
3060.241  0.54978  -98.60
3066.265  0.55144  -99.26
3072.289  0.55145  -99.94
3078.313  0.55249 -100.82
3084.337  0.54840  -99.82
3090.361  0.53995 -100.95
3096.386  0.53452 -103.57
3102.410  0.52988 -103.57
3108.434  0.54051 -104.63
3114.458  0.53542 -105.91
3120.482  0.53062 -107.58
3126.506  0.53287 -106.49
3132.530  0.53542 -108.66
3138.554  0.53386 -109.18
3144.578  0.53696 -110.00
3150.602  0.53836 -111.68
3156.627  0.54229 -113.71
3162.651  0.54035 -114.24
3168.675  0.54270 -115.66
3174.699  0.55342 -116.12
3180.723  0.54726 -117.22
3186.747  0.55372 -118.27
3192.771  0.55430 -117.64
3198.795  0.54885 -118.03
3204.819  0.55581 -118.53
3210.843  0.55972 -119.33
3216.867  0.56038 -118.26
3222.892  0.56491 -118.91
3228.916  0.55852 -120.19
3234.940  0.55823 -121.08
3240.964  0.55592 -121.30
3246.988  0.54473 -121.57
3253.012  0.54462 -121.86
3259.036  0.53768 -123.14
3265.060  0.53150 -122.94
3271.084  0.52879 -123.75
3277.108  0.52487 -125.47
3283.133  0.51364 -127.35
3289.157  0.52084 -127.22
3295.181  0.52330 -129.41
3301.205  0.51757 -130.70
3307.229  0.51765 -131.55
3313.253  0.52566 -133.20
3319.277  0.51911 -133.60
3325.301  0.52053 -135.40
3331.325  0.51070 -136.86
3337.349  0.52048 -137.60
3343.373  0.51613 -139.11
3349.398  0.51378 -140.08
3355.422  0.51496 -141.06
3361.446  0.51530 -142.69
3367.470  0.51681 -142.92
3373.494  0.52151 -142.51
3379.518  0.52296 -142.74
3385.542  0.52380 -144.36
3391.566  0.52447 -146.44
3397.590  0.52763 -147.32
3403.614  0.52080 -146.57
3409.639  0.51986 -147.62
3415.663  0.51283 -148.55
3421.687  0.51149 -148.70
3427.711  0.50596 -149.69
3433.735  0.50133 -151.25
3439.759  0.50026 -152.10
3445.783  0.49950 -155.07
3451.807  0.49204 -154.13
3457.831  0.50247 -155.92
3463.855  0.49422 -157.68
3469.880  0.49642 -158.99
3475.904  0.49506 -160.08
3481.928  0.50037 -160.27
3487.952  0.49686 -161.55
3493.976  0.49120 -162.76
3500.000  0.49709 -163.08
3506.024  0.49265 -164.84
3512.048  0.48831 -165.12
3518.072  0.48733 -166.51
3524.096  0.48368 -166.29
3530.120  0.48102 -167.91
3536.145  0.48820 -169.04
3542.169  0.49517 -169.06
3548.193  0.49004 -170.42
3554.217  0.49372 -171.45
3560.241  0.48739 -172.37
3566.265  0.48842 -171.74
3572.289  0.48237 -174.85
3578.313  0.47564 -174.75
3584.337  0.47396 -175.34
3590.361  0.47238 -177.64
3596.386  0.47190 -179.26
3602.410  0.45728 -179.39
3608.434  0.46095  179.37
3614.458  0.45972  177.38
3620.482  0.45926  175.92
3626.506  0.45571  173.97
3632.530  0.46057  172.84
3638.554  0.46254  171.66
3644.578  0.46375  170.76
3650.602  0.45547  169.01
3656.627  0.45360  166.29
3662.651  0.45793  164.69
3668.675  0.45326  165.80
3674.699  0.46040  162.90
3680.723  0.44238  160.70
3686.747  0.44253  158.99
3692.771  0.44119  159.94
3698.795  0.44484  157.28
3704.819  0.45155  156.14
3710.843  0.44924  155.50
3716.867  0.43662  152.33
3722.892  0.43874  152.54
3728.916  0.43052  151.07
3734.940  0.44320  147.89
3740.964  0.42356  146.83
3746.988  0.42269  144.74
3753.012  0.42661  142.37
3759.036  0.42556  139.69
3765.060  0.40123  140.04
3771.084  0.40556  137.62
3777.108  0.39466  136.58
3783.133  0.41508  133.80
3789.157  0.40537  130.50
3795.181  0.40194  128.02
3801.205  0.39642  128.61
3807.229  0.39008  124.62
3813.253  0.38228  124.67
3819.277  0.38945  121.52
3825.301  0.39258  119.96
3831.325  0.38499  120.60
3837.349  0.36907  117.91
3843.373  0.35671  115.89
3849.398  0.36402  116.38
3855.422  0.34717  114.70
3861.446  0.34955  114.55
3867.470  0.35054  111.56
3873.494  0.32213  106.05
3879.518  0.33130  104.00
3885.542  0.32678  102.22
3891.566  0.30826  100.77
3897.590  0.35437   99.75
3903.614  0.34061   94.76
3909.639  0.32699   89.08
3915.663  0.31401   83.06
3921.687  0.31183   81.18
3927.711  0.29842   74.24
3933.735  0.25853   75.79
3939.759  0.26355   72.28
3945.783  0.25833   65.07
3951.807  0.23165   64.82
3957.831  0.22829   60.49
3963.855  0.22659   55.00
3969.880  0.21176   52.67
3975.904  0.21931   52.28
3981.928  0.20668   51.01
3987.952  0.19848   44.41
3993.976  0.18505   41.01
4000.000  0.18177   37.10
