# MHz S MA R 50
!   freq        S11       
2500.000  0.72670 -104.38
2506.024  0.73220 -104.70
2512.048  0.72684 -105.11
2518.072  0.70631 -105.45
2524.096  0.70672 -106.94
2530.120  0.69722 -107.81
2536.145  0.68435 -108.59
2542.169  0.67421 -108.78
2548.193  0.65801 -109.50
2554.217  0.63932 -110.68
2560.241  0.62475 -110.84
2566.265  0.61132 -112.09
2572.289  0.59594 -112.41
2578.313  0.57819 -112.83
2584.337  0.56380 -113.96
2590.361  0.54679 -115.44
2596.386  0.51943 -116.00
2602.410  0.50022 -116.79
2608.434  0.47820 -118.31
2614.458  0.46076 -118.36
2620.482  0.44285 -119.62
2626.506  0.41981 -119.01
2632.530  0.40222 -119.24
2638.554  0.38518 -119.57
2644.578  0.36804 -117.85
2650.602  0.34976 -117.67
2656.627  0.33601 -115.08
2662.651  0.31827 -112.63
2668.675  0.30540 -111.81
2674.699  0.29536 -107.48
2680.723  0.28557 -103.81
2686.747  0.28252 -101.23
2692.771  0.27861  -96.29
2698.795  0.28114  -92.66
2704.819  0.28780  -88.33
2710.843  0.28891  -83.58
2716.867  0.29567  -80.88
2722.892  0.30399  -77.91
2728.916  0.31651  -75.02
2734.940  0.32697  -73.58
2740.964  0.34234  -70.95
2746.988  0.35320  -70.78
2753.012  0.36606  -70.11
2759.036  0.37399  -70.43
2765.060  0.38208  -67.92
2771.084  0.39353  -69.32
2777.108  0.40558  -70.46
2783.133  0.41766  -71.01
2789.157  0.42392  -72.09
2795.181  0.43618  -72.50
2801.205  0.44506  -73.64
2807.229  0.45777  -73.48
2813.253  0.47107  -75.33
2819.277  0.48010  -76.76
2825.301  0.49133  -78.82
2831.325  0.50397  -78.55
2837.349  0.51404  -80.59
2843.373  0.52358  -82.12
2849.398  0.53212  -81.71
2855.422  0.54273  -82.38
2861.446  0.54961  -83.51
2867.470  0.55682  -84.01
2873.494  0.55710  -84.05
2879.518  0.56736  -84.72
2885.542  0.57333  -84.56
2891.566  0.58032  -84.87
2897.590  0.58987  -84.97
2903.614  0.58817  -85.55
2909.639  0.58803  -86.51
2915.663  0.58914  -86.05
2921.687  0.58737  -86.60
2927.711  0.58722  -87.83
2933.735  0.59139  -88.52
2939.759  0.59358  -88.50
2945.783  0.58157  -88.17
2951.807  0.57893  -89.77
2957.831  0.57320  -90.36
2963.855  0.58161  -90.49
2969.880  0.58402  -92.10
2975.904  0.59042  -92.47
2981.928  0.59163  -93.47
2987.952  0.59274  -94.60
2993.976  0.60347  -94.79
3000.000  0.60156  -95.87
3006.024  0.61275  -96.74
3012.048  0.60022  -96.36
3018.072  0.61738  -97.34
3024.096  0.62054  -97.26
3030.120  0.62231  -98.91
3036.145  0.62280  -98.67
3042.169  0.63299  -99.39
3048.193  0.62208  -99.50
3054.217  0.62737  -99.88
3060.241  0.63361  -99.39
3066.265  0.63460 -100.41
3072.289  0.63611 -101.35
3078.313  0.63798 -101.52
3084.337  0.62378 -102.55
3090.361  0.61945 -103.31
3096.386  0.62220 -104.79
3102.410  0.61505 -106.10
3108.434  0.61896 -105.73
3114.458  0.61919 -107.82
3120.482  0.61394 -107.60
3126.506  0.60958 -107.51
3132.530  0.61682 -111.80
3138.554  0.61389 -111.87
3144.578  0.61630 -112.81
3150.602  0.61608 -114.93
3156.627  0.62022 -116.63
3162.651  0.61489 -117.53
3168.675  0.61986 -119.07
3174.699  0.62096 -119.28
3180.723  0.61636 -120.31
3186.747  0.61870 -121.61
3192.771  0.61950 -121.67
3198.795  0.61445 -122.00
3204.819  0.61572 -122.81
3210.843  0.62043 -122.75
3216.867  0.62178 -121.48
3222.892  0.62191 -123.54
3228.916  0.60855 -124.43
3234.940  0.60341 -124.88
3240.964  0.59876 -125.38
3246.988  0.59596 -126.20
3253.012  0.58339 -126.72
3259.036  0.56995 -127.04
3265.060  0.56354 -128.05
3271.084  0.56693 -128.10
3277.108  0.55521 -130.21
3283.133  0.54457 -130.78
3289.157  0.55223 -130.10
3295.181  0.55027 -132.15
3301.205  0.54064 -131.52
3307.229  0.54612 -134.06
3313.253  0.54978 -135.08
3319.277  0.54146 -136.02
3325.301  0.54979 -137.00
3331.325  0.54074 -138.01
3337.349  0.54943 -139.33
3343.373  0.55099 -140.56
3349.398  0.54952 -141.04
3355.422  0.54831 -142.22
3361.446  0.54971 -143.90
3367.470  0.55460 -143.38
3373.494  0.56213 -143.33
3379.518  0.56710 -143.24
3385.542  0.56777 -145.69
3391.566  0.56888 -146.41
3397.590  0.57049 -147.53
3403.614  0.56391 -147.51
3409.639  0.56948 -148.52
3415.663  0.56492 -150.75
3421.687  0.56419 -149.74
3427.711  0.55348 -151.77
3433.735  0.55708 -154.22
3439.759  0.55099 -154.62
3445.783  0.54993 -154.83
3451.807  0.55158 -157.06
3457.831  0.55565 -158.52
3463.855  0.54981 -159.82
3469.880  0.55418 -162.04
3475.904  0.55793 -164.03
3481.928  0.56145 -164.58
3487.952  0.55132 -166.45
3493.976  0.55547 -167.33
3500.000  0.55727 -168.11
3506.024  0.54972 -170.65
3512.048  0.54639 -170.70
3518.072  0.54938 -172.34
3524.096  0.53864 -172.24
3530.120  0.54230 -175.23
3536.145  0.54223 -176.61
3542.169  0.54128 -176.73
3548.193  0.54005 -178.02
3554.217  0.53265  179.76
3560.241  0.52768  178.51
3566.265  0.52425  177.70
3572.289  0.52048  177.35
3578.313  0.51410  175.37
3584.337  0.51211  172.69
3590.361  0.50498  170.25
3596.386  0.49456  171.18
3602.410  0.48864  168.26
3608.434  0.48891  166.33
3614.458  0.48063  165.36
3620.482  0.47234  162.21
3626.506  0.47029  160.61
3632.530  0.47019  160.43
3638.554  0.46423  157.52
3644.578  0.46786  156.24
3650.602  0.45892  154.35
3656.627  0.45688  151.11
3662.651  0.45214  151.07
3668.675  0.44159  150.43
3674.699  0.44434  146.79
3680.723  0.42663  145.34
3686.747  0.42730  143.39
3692.771  0.41685  142.58
3698.795  0.42040  140.15
3704.819  0.41575  138.30
3710.843  0.41204  137.35
3716.867  0.39706  134.74
3722.892  0.39049  132.67
3728.916  0.38370  130.93
3734.940  0.38976  128.67
3740.964  0.36881  124.10
3746.988  0.36558  125.21
3753.012  0.36352  122.83
3759.036  0.36474  118.51
3765.060  0.34511  116.53
3771.084  0.33181  115.36
3777.108  0.33106  112.47
3783.133  0.32601  109.96
3789.157  0.32252  106.18
3795.181  0.32153  103.16
3801.205  0.30883  103.44
3807.229  0.29919   98.63
3813.253  0.29166   97.14
3819.277  0.29733   92.53
3825.301  0.29529   91.41
3831.325  0.27708   91.53
3837.349  0.26205   87.09
3843.373  0.23873   82.46
3849.398  0.25568   83.59
3855.422  0.22388   77.45
3861.446  0.21391   70.66
3867.470  0.22042   71.96
3873.494  0.21180   61.47
3879.518  0.19996   58.27
3885.542  0.18941   56.59
3891.566  0.17151   48.36
3897.590  0.18072   49.02
3903.614  0.19375   38.40
3909.639  0.19298   32.14
3915.663  0.17624   16.57
3921.687  0.17125   13.09
3927.711  0.17107    8.08
3933.735  0.14831   -6.88
3939.759  0.16350   -5.87
3945.783  0.15515  -13.75
3951.807  0.14570  -22.95
3957.831  0.15537  -24.12
3963.855  0.15633  -27.37
3969.880  0.15047  -33.70
3975.904  0.14950  -35.68
3981.928  0.15056  -43.57
3987.952  0.15249  -47.53
3993.976  0.14850  -54.45
4000.000  0.14995  -59.39
