# MHz S MA R 50
!   freq        S11       
2500.000  0.74282  -95.53
2506.024  0.74557  -97.43
2512.048  0.74729  -97.71
2518.072  0.72802  -96.16
2524.096  0.73739  -97.96
2530.120  0.73275  -97.69
2536.145  0.72477  -98.57
2542.169  0.72406  -98.65
2548.193  0.71520  -99.09
2554.217  0.71066  -99.32
2560.241  0.69533  -99.57
2566.265  0.69607 -100.06
2572.289  0.69065 -100.06
2578.313  0.68251 -100.92
2584.337  0.67362 -100.93
2590.361  0.67456 -102.44
2596.386  0.65871 -102.74
2602.410  0.64693 -104.06
2608.434  0.63734 -104.09
2614.458  0.62879 -105.77
2620.482  0.62663 -106.09
2626.506  0.60934 -106.80
2632.530  0.60983 -107.79
2638.554  0.60099 -108.83
2644.578  0.59063 -108.46
2650.602  0.57984 -109.72
2656.627  0.58241 -109.72
2662.651  0.56781 -110.48
2668.675  0.56025 -111.67
2674.699  0.55685 -112.08
2680.723  0.54619 -111.08
2686.747  0.53965 -112.40
2692.771  0.53055 -112.91
2698.795  0.52069 -112.65
2704.819  0.51046 -112.54
2710.843  0.49959 -112.26
2716.867  0.48720 -111.78
2722.892  0.47542 -112.60
2728.916  0.46287 -111.67
2734.940  0.45538 -112.11
2740.964  0.45022 -110.97
2746.988  0.43619 -110.88
2753.012  0.41920 -112.15
2759.036  0.41137 -112.24
2765.060  0.40226 -109.95
2771.084  0.39204 -111.95
2777.108  0.38078 -111.27
2783.133  0.37636 -110.58
2789.157  0.36457 -110.07
2795.181  0.36213 -110.83
2801.205  0.35662 -110.56
2807.229  0.35365 -109.16
2813.253  0.35553 -107.74
2819.277  0.35292 -107.76
2825.301  0.35563 -107.28
2831.325  0.35603 -104.50
2837.349  0.36084 -104.41
2843.373  0.36365 -103.19
2849.398  0.36241 -100.86
2855.422  0.37070 -100.17
2861.446  0.38037  -98.88
2867.470  0.38477  -97.36
2873.494  0.39005  -96.04
2879.518  0.39496  -95.02
2885.542  0.40231  -92.87
2891.566  0.40713  -92.21
2897.590  0.41641  -91.58
2903.614  0.41967  -90.92
2909.639  0.42717  -90.03
2915.663  0.42785  -89.72
2921.687  0.43186  -88.74
2927.711  0.44286  -90.41
2933.735  0.44816  -89.63
2939.759  0.44742  -90.23
2945.783  0.44721  -88.51
2951.807  0.45281  -88.95
2957.831  0.44926  -90.77
2963.855  0.46425  -90.63
2969.880  0.46375  -92.19
2975.904  0.47100  -93.49
2981.928  0.47346  -93.39
2987.952  0.47893  -94.16
2993.976  0.48881  -95.23
3000.000  0.49043  -96.04
3006.024  0.50019  -96.55
3012.048  0.49806  -97.55
3018.072  0.50888  -97.35
3024.096  0.51541  -97.82
3030.120  0.51807  -98.75
3036.145  0.51833  -98.63
3042.169  0.52810  -99.26
3048.193  0.51850  -99.10
3054.217  0.52167  -99.76
3060.241  0.52811  -98.55
3066.265  0.52878  -99.85
3072.289  0.52883 -100.10
3078.313  0.52961 -100.59
3084.337  0.52208 -101.30
3090.361  0.51550 -101.72
3096.386  0.51887 -102.60
3102.410  0.50807 -103.89
3108.434  0.51417 -104.93
3114.458  0.50874 -105.86
3120.482  0.50509 -107.09
3126.506  0.50570 -108.31
3132.530  0.51400 -108.16
3138.554  0.51322 -110.07
3144.578  0.51426 -110.89
3150.602  0.51259 -111.42
3156.627  0.52141 -113.40
3162.651  0.51843 -114.92
3168.675  0.52536 -116.52
3174.699  0.52626 -116.28
3180.723  0.52610 -116.93
3186.747  0.53420 -118.80
3192.771  0.53585 -118.28
3198.795  0.52844 -118.62
3204.819  0.53561 -118.93
3210.843  0.53917 -119.68
3216.867  0.53844 -118.65
3222.892  0.54247 -119.69
3228.916  0.53889 -120.41
3234.940  0.54032 -121.76
3240.964  0.53129 -120.71
3246.988  0.52517 -121.76
3253.012  0.52474 -121.87
3259.036  0.51655 -122.95
3265.060  0.50639 -123.47
3271.084  0.50965 -124.39
3277.108  0.50163 -125.74
3283.133  0.49864 -126.17
3289.157  0.49568 -126.29
3295.181  0.49881 -130.33
3301.205  0.49381 -130.96
3307.229  0.49750 -131.82
3313.253  0.50286 -133.34
3319.277  0.49715 -134.10
3325.301  0.49494 -136.04
3331.325  0.48641 -137.01
3337.349  0.49298 -137.72
3343.373  0.49476 -139.36
3349.398  0.48945 -139.81
3355.422  0.49230 -141.76
3361.446  0.49029 -142.32
3367.470  0.49347 -142.59
3373.494  0.49558 -141.87
3379.518  0.50661 -143.44
3385.542  0.48926 -144.17
3391.566  0.48721 -145.72
3397.590  0.49949 -147.06
3403.614  0.48664 -145.47
3409.639  0.48632 -148.42
3415.663  0.48849 -147.69
3421.687  0.48386 -149.05
3427.711  0.47722 -149.68
3433.735  0.47514 -150.30
3439.759  0.47202 -150.40
3445.783  0.46869 -153.11
3451.807  0.46778 -153.53
3457.831  0.47191 -154.81
3463.855  0.46511 -155.63
3469.880  0.47124 -157.64
3475.904  0.46613 -158.65
3481.928  0.47280 -159.32
3487.952  0.46803 -161.00
3493.976  0.46656 -161.86
3500.000  0.47253 -162.10
3506.024  0.46874 -163.53
3512.048  0.46370 -164.52
3518.072  0.46944 -165.20
3524.096  0.46029 -165.19
3530.120  0.45836 -166.43
3536.145  0.46510 -166.76
3542.169  0.47747 -167.91
3548.193  0.47382 -168.70
3554.217  0.46873 -169.30
3560.241  0.46949 -169.19
3566.265  0.46997 -171.10
3572.289  0.46679 -171.92
3578.313  0.46136 -172.52
3584.337  0.45801 -173.43
3590.361  0.45732 -174.47
3596.386  0.45310 -176.89
3602.410  0.45076 -178.92
3608.434  0.44705 -178.96
3614.458  0.44165 -179.94
3620.482  0.43939  178.30
3626.506  0.43934  175.86
3632.530  0.44160  175.65
3638.554  0.44532  173.36
3644.578  0.44551  171.85
3650.602  0.45049  171.07
3656.627  0.44566  168.07
3662.651  0.45055  167.87
3668.675  0.43992  167.62
3674.699  0.44716  164.87
3680.723  0.43851  163.15
3686.747  0.43965  162.51
3692.771  0.44016  163.11
3698.795  0.43912  160.41
3704.819  0.44818  158.36
3710.843  0.43656  156.82
3716.867  0.43320  155.67
3722.892  0.43374  152.88
3728.916  0.42867  151.29
3734.940  0.42890  149.22
3740.964  0.42300  148.34
3746.988  0.41667  149.10
3753.012  0.41100  143.37
3759.036  0.42711  141.72
3765.060  0.39984  142.79
3771.084  0.40176  140.51
3777.108  0.41227  138.32
3783.133  0.40930  135.55
3789.157  0.40966  133.08
3795.181  0.40029  129.76
3801.205  0.40402  130.59
3807.229  0.39387  126.90
3813.253  0.38740  127.29
3819.277  0.39120  123.97
3825.301  0.39964  122.26
3831.325  0.39094  123.07
3837.349  0.37395  119.69
3843.373  0.36638  117.92
3849.398  0.38895  117.90
3855.422  0.37205  118.32
3861.446  0.35159  110.96
3867.470  0.36052  113.54
3873.494  0.33044  112.04
3879.518  0.33308  106.94
3885.542  0.33840  106.46
3891.566  0.33300  103.54
3897.590  0.35204  103.42
3903.614  0.33699   95.56
3909.639  0.35504   89.06
3915.663  0.31365   85.28
3921.687  0.30446   82.64
3927.711  0.29700   76.42
3933.735  0.26951   77.50
3939.759  0.26314   72.75
3945.783  0.27060   66.27
3951.807  0.23608   63.12
3957.831  0.23997   60.06
3963.855  0.23517   56.42
3969.880  0.22781   55.14
3975.904  0.21895   51.71
3981.928  0.21704   49.87
3987.952  0.20538   44.21
3993.976  0.20142   43.02
4000.000  0.19100   37.85
