# MHz S MA R 50
!   freq        S11       
2500.000  0.72101 -101.71
2506.024  0.73535 -100.76
2512.048  0.72957 -102.30
2518.072  0.71256 -101.54
2524.096  0.71588 -103.45
2530.120  0.71059 -103.49
2536.145  0.69851 -103.77
2542.169  0.69036 -103.62
2548.193  0.68182 -104.46
2554.217  0.66753 -105.06
2560.241  0.65257 -105.73
2566.265  0.64376 -106.64
2572.289  0.63241 -107.98
2578.313  0.62246 -107.45
2584.337  0.60823 -108.84
2590.361  0.60193 -110.16
2596.386  0.57597 -110.38
2602.410  0.56384 -111.82
2608.434  0.54207 -111.94
2614.458  0.53094 -112.89
2620.482  0.51776 -113.69
2626.506  0.49259 -114.27
2632.530  0.48356 -114.42
2638.554  0.46920 -113.80
2644.578  0.45314 -113.91
2650.602  0.43350 -116.59
2656.627  0.42227 -113.84
2662.651  0.40666 -113.80
2668.675  0.39187 -113.38
2674.699  0.38104 -112.02
2680.723  0.36495 -109.51
2686.747  0.35796 -108.75
2692.771  0.34954 -106.53
2698.795  0.34224 -103.93
2704.819  0.33833 -100.67
2710.843  0.32945  -97.66
2716.867  0.32734  -95.30
2722.892  0.32561  -92.17
2728.916  0.32794  -89.27
2734.940  0.33183  -86.79
2740.964  0.33708  -84.40
2746.988  0.34201  -82.95
2753.012  0.34349  -82.50
2759.036  0.35301  -80.57
2765.060  0.35560  -79.56
2771.084  0.36459  -79.35
2777.108  0.37009  -79.25
2783.133  0.38021  -78.78
2789.157  0.38969  -79.04
2795.181  0.39414  -79.28
2801.205  0.40432  -79.71
2807.229  0.41711  -79.22
2813.253  0.42656  -79.44
2819.277  0.43915  -79.51
2825.301  0.45413  -82.29
2831.325  0.46483  -82.16
2837.349  0.47404  -82.97
2843.373  0.48184  -82.99
2849.398  0.49817  -84.33
2855.422  0.50428  -84.08
2861.446  0.51797  -85.41
2867.470  0.52379  -85.43
2873.494  0.53272  -85.99
2879.518  0.54073  -86.44
2885.542  0.54608  -86.05
2891.566  0.55252  -86.22
2897.590  0.56263  -87.07
2903.614  0.56409  -87.16
2909.639  0.56209  -87.87
2915.663  0.56839  -88.17
2921.687  0.56753  -88.55
2927.711  0.56895  -89.77
2933.735  0.56805  -90.46
2939.759  0.57158  -91.17
2945.783  0.55841  -91.37
2951.807  0.55840  -91.59
2957.831  0.55304  -92.14
2963.855  0.56225  -93.61
2969.880  0.55981  -94.72
2975.904  0.55911  -95.04
2981.928  0.55799  -96.34
2987.952  0.55711  -96.83
2993.976  0.56309  -96.53
3000.000  0.56013  -97.60
3006.024  0.56717  -98.31
3012.048  0.56175  -98.92
3018.072  0.56953  -99.75
3024.096  0.56689  -98.90
3030.120  0.57486  -99.96
3036.145  0.57591  -99.72
3042.169  0.57872 -100.94
3048.193  0.57172  -99.77
3054.217  0.57510  -99.83
3060.241  0.57901  -99.41
3066.265  0.58230 -100.12
3072.289  0.58001 -101.03
3078.313  0.58323 -101.78
3084.337  0.57408 -101.52
3090.361  0.56806 -102.37
3096.386  0.56629 -103.24
3102.410  0.55678 -104.22
3108.434  0.56609 -105.14
3114.458  0.56408 -104.43
3120.482  0.56072 -106.24
3126.506  0.56337 -105.38
3132.530  0.56742 -108.39
3138.554  0.56998 -110.39
3144.578  0.57158 -111.22
3150.602  0.56833 -111.18
3156.627  0.57751 -113.72
3162.651  0.57275 -114.56
3168.675  0.57892 -115.80
3174.699  0.58355 -115.84
3180.723  0.58587 -116.98
3186.747  0.58629 -118.35
3192.771  0.58896 -118.10
3198.795  0.58422 -118.02
3204.819  0.58961 -118.83
3210.843  0.59585 -119.19
3216.867  0.59743 -119.16
3222.892  0.59963 -119.53
3228.916  0.59571 -120.96
3234.940  0.59577 -121.88
3240.964  0.58830 -121.98
3246.988  0.57641 -122.45
3253.012  0.57808 -122.66
3259.036  0.57135 -122.70
3265.060  0.56483 -123.95
3271.084  0.55947 -124.66
3277.108  0.56137 -125.51
3283.133  0.54816 -127.98
3289.157  0.55877 -127.93
3295.181  0.55056 -129.76
3301.205  0.54904 -131.06
3307.229  0.55370 -131.88
3313.253  0.55300 -133.00
3319.277  0.55293 -134.41
3325.301  0.54731 -136.48
3331.325  0.54758 -137.89
3337.349  0.55263 -139.37
3343.373  0.55162 -139.85
3349.398  0.54872 -140.68
3355.422  0.55119 -142.40
3361.446  0.54983 -143.75
3367.470  0.55090 -143.98
3373.494  0.55551 -143.78
3379.518  0.55226 -145.18
3385.542  0.55911 -146.44
3391.566  0.55809 -147.57
3397.590  0.55312 -149.76
3403.614  0.55387 -147.99
3409.639  0.55278 -148.69
3415.663  0.54020 -150.93
3421.687  0.53947 -152.32
3427.711  0.53295 -153.23
3433.735  0.53016 -155.20
3439.759  0.52334 -154.48
3445.783  0.52320 -156.88
3451.807  0.52321 -157.27
3457.831  0.53261 -160.35
3463.855  0.51657 -161.23
3469.880  0.51543 -162.18
3475.904  0.51733 -163.37
3481.928  0.52087 -164.64
3487.952  0.51111 -166.16
3493.976  0.51524 -167.24
3500.000  0.50953 -168.38
3506.024  0.50717 -169.57
3512.048  0.50426 -170.08
3518.072  0.50452 -171.64
3524.096  0.49601 -172.36
3530.120  0.48637 -173.50
3536.145  0.49737 -174.22
3542.169  0.50092 -174.78
3548.193  0.49420 -176.79
3554.217  0.48738 -177.03
3560.241  0.48522 -178.10
3566.265  0.48334 -179.37
3572.289  0.47318  179.42
3578.313  0.46285  178.23
3584.337  0.46545  176.41
3590.361  0.45795  175.75
3596.386  0.44620  173.55
3602.410  0.44339  172.22
3608.434  0.43953  170.69
3614.458  0.43189  168.97
3620.482  0.42990  167.66
3626.506  0.41912  165.43
3632.530  0.42352  163.93
3638.554  0.42079  162.33
3644.578  0.42026  160.85
3650.602  0.41013  159.29
3656.627  0.40504  156.04
3662.651  0.40830  156.02
3668.675  0.39144  155.84
3674.699  0.39613  153.02
3680.723  0.38260  152.08
3686.747  0.37819  149.97
3692.771  0.37490  150.42
3698.795  0.36797  147.94
3704.819  0.37358  146.70
3710.843  0.36130  144.34
3716.867  0.35380  144.14
3722.892  0.34297  142.08
3728.916  0.33577  139.24
3734.940  0.33721  138.47
3740.964  0.31820  137.89
3746.988  0.31705  132.98
3753.012  0.31926  131.39
3759.036  0.31629  128.03
3765.060  0.29078  126.97
3771.084  0.28528  126.06
3777.108  0.27912  125.65
3783.133  0.27386  122.58
3789.157  0.26535  119.21
3795.181  0.26519  113.00
3801.205  0.25817  115.33
3807.229  0.24878  113.12
3813.253  0.24696  111.69
3819.277  0.25123  109.62
3825.301  0.23721  107.42
3831.325  0.21997  110.59
3837.349  0.21609  104.10
3843.373  0.18799   99.57
3849.398  0.20350  105.75
3855.422  0.17610   98.32
3861.446  0.16463   95.33
3867.470  0.16867   99.73
3873.494  0.13184   91.80
3879.518  0.13051   95.21
3885.542  0.12018   89.21
3891.566  0.10908   83.63
3897.590  0.14073   88.64
3903.614  0.09541   75.65
3909.639  0.11344   64.73
3915.663  0.07530   57.11
3921.687  0.07593   48.99
3927.711  0.07155   29.65
3933.735  0.04371   44.77
3939.759  0.05421   40.74
3945.783  0.05876   13.96
3951.807  0.03531   -7.91
3957.831  0.04348   -3.74
3963.855  0.04632   -5.50
3969.880  0.03644  -24.91
3975.904  0.03988  -33.78
3981.928  0.04806  -53.94
3987.952  0.04407  -50.46
3993.976  0.05557  -63.98
4000.000  0.05878  -71.78
