# MHz S MA R 50
!   freq        S11       
2500.000  0.79095  -96.29
2506.024  0.79960  -95.98
2512.048  0.80148  -96.17
2518.072  0.78189  -96.46
2524.096  0.78237  -96.72
2530.120  0.78017  -96.92
2536.145  0.77593  -98.25
2542.169  0.77235  -98.03
2548.193  0.76904  -98.40
2554.217  0.76347  -98.61
2560.241  0.74699  -98.83
2566.265  0.74917  -99.94
2572.289  0.74430 -100.58
2578.313  0.73570 -100.49
2584.337  0.73097 -101.10
2590.361  0.73439 -102.55
2596.386  0.72534 -103.67
2602.410  0.70243 -103.72
2608.434  0.69458 -105.32
2614.458  0.69137 -105.96
2620.482  0.68718 -106.91
2626.506  0.66873 -107.93
2632.530  0.66606 -108.82
2638.554  0.66678 -110.11
2644.578  0.65765 -109.75
2650.602  0.64776 -110.71
2656.627  0.64884 -111.36
2662.651  0.63510 -112.42
2668.675  0.62580 -112.97
2674.699  0.62238 -113.50
2680.723  0.61266 -113.14
2686.747  0.60533 -114.68
2692.771  0.59723 -114.53
2698.795  0.58847 -114.63
2704.819  0.57951 -114.86
2710.843  0.57112 -114.47
2716.867  0.56110 -115.44
2722.892  0.55069 -115.42
2728.916  0.53751 -114.69
2734.940  0.53523 -114.58
2740.964  0.52551 -115.06
2746.988  0.51817 -116.05
2753.012  0.51021 -116.47
2759.036  0.49715 -117.30
2765.060  0.48738 -117.00
2771.084  0.47821 -118.16
2777.108  0.47455 -118.90
2783.133  0.46941 -118.54
2789.157  0.46350 -119.71
2795.181  0.45425 -120.83
2801.205  0.45368 -120.94
2807.229  0.45102 -121.27
2813.253  0.44826 -121.28
2819.277  0.44740 -122.51
2825.301  0.44771 -123.20
2831.325  0.44099 -122.38
2837.349  0.43788 -122.99
2843.373  0.43321 -122.90
2849.398  0.42831 -122.60
2855.422  0.42904 -122.67
2861.446  0.42125 -122.48
2867.470  0.41412 -122.28
2873.494  0.40439 -122.46
2879.518  0.40049 -121.39
2885.542  0.39485 -119.21
2891.566  0.38712 -118.85
2897.590  0.37838 -119.12
2903.614  0.37177 -119.36
2909.639  0.36430 -117.95
2915.663  0.34486 -117.19
2921.687  0.33680 -116.74
2927.711  0.32934 -116.26
2933.735  0.32225 -115.20
2939.759  0.31373 -114.37
2945.783  0.30011 -113.42
2951.807  0.29760 -111.77
2957.831  0.28888 -111.05
2963.855  0.28990 -109.76
2969.880  0.28477 -110.03
2975.904  0.28615 -107.96
2981.928  0.28523 -106.78
2987.952  0.28765 -105.61
2993.976  0.28906 -102.09
3000.000  0.29530 -101.90
3006.024  0.30711 -101.11
3012.048  0.30794 -100.29
3018.072  0.31475  -98.19
3024.096  0.32559  -96.42
3030.120  0.32824  -95.45
3036.145  0.33961  -93.96
3042.169  0.35002  -92.79
3048.193  0.34954  -91.33
3054.217  0.35569  -91.17
3060.241  0.36760  -89.62
3066.265  0.37657  -89.26
3072.289  0.38089  -89.30
3078.313  0.39288  -89.04
3084.337  0.39088  -88.84
3090.361  0.39565  -88.72
3096.386  0.40312  -89.84
3102.410  0.39763  -90.80
3108.434  0.41198  -91.89
3114.458  0.41527  -92.21
3120.482  0.41821  -93.95
3126.506  0.42314  -93.50
3132.530  0.43429  -95.69
3138.554  0.44027  -96.91
3144.578  0.44549  -98.38
3150.602  0.44987  -99.16
3156.627  0.46102 -101.52
3162.651  0.47038 -104.39
3168.675  0.47179 -104.48
3174.699  0.48453 -105.57
3180.723  0.48667 -106.21
3186.747  0.49233 -108.40
3192.771  0.50014 -108.34
3198.795  0.50122 -108.93
3204.819  0.51249 -109.46
3210.843  0.51713 -110.95
3216.867  0.52317 -110.03
3222.892  0.52920 -111.50
3228.916  0.52500 -112.70
3234.940  0.52945 -113.03
3240.964  0.52452 -113.48
3246.988  0.51495 -114.37
3253.012  0.51322 -115.59
3259.036  0.50605 -116.58
3265.060  0.50456 -116.97
3271.084  0.49864 -119.93
3277.108  0.49604 -119.96
3283.133  0.49125 -121.55
3289.157  0.49223 -121.92
3295.181  0.48594 -122.83
3301.205  0.48698 -125.28
3307.229  0.48831 -125.71
3313.253  0.49049 -127.79
3319.277  0.48633 -129.22
3325.301  0.48303 -131.30
3331.325  0.48315 -131.95
3337.349  0.48835 -133.61
3343.373  0.48553 -134.83
3349.398  0.48246 -135.78
3355.422  0.48519 -137.60
3361.446  0.48385 -139.00
3367.470  0.48655 -138.75
3373.494  0.49407 -138.40
3379.518  0.49012 -139.86
3385.542  0.49231 -140.80
3391.566  0.49101 -143.04
3397.590  0.49762 -142.83
3403.614  0.48747 -143.59
3409.639  0.48343 -144.65
3415.663  0.48363 -144.93
3421.687  0.48391 -144.93
3427.711  0.47388 -146.30
3433.735  0.47578 -148.16
3439.759  0.46543 -147.50
3445.783  0.46835 -149.89
3451.807  0.46530 -150.69
3457.831  0.47211 -153.39
3463.855  0.47163 -154.97
3469.880  0.46786 -155.84
3475.904  0.47188 -157.68
3481.928  0.47668 -156.91
3487.952  0.46355 -158.96
3493.976  0.46807 -159.55
3500.000  0.47019 -160.41
3506.024  0.46828 -162.25
3512.048  0.46781 -163.35
3518.072  0.46987 -163.47
3524.096  0.46389 -165.05
3530.120  0.46536 -165.76
3536.145  0.46662 -166.25
3542.169  0.47886 -167.18
3548.193  0.47638 -167.31
3554.217  0.46734 -169.64
3560.241  0.47071 -170.91
3566.265  0.46617 -170.72
3572.289  0.46581 -172.28
3578.313  0.45607 -174.95
3584.337  0.45558 -173.44
3590.361  0.45053 -174.61
3596.386  0.44764 -177.43
3602.410  0.43629 -177.64
3608.434  0.44459 -179.38
3614.458  0.43565  178.15
3620.482  0.43285  176.21
3626.506  0.43354  174.85
3632.530  0.43973  174.66
3638.554  0.43126  172.74
3644.578  0.43536  170.15
3650.602  0.43259  170.12
3656.627  0.43066  167.48
3662.651  0.43000  166.38
3668.675  0.42366  165.32
3674.699  0.42932  163.73
3680.723  0.41643  161.78
3686.747  0.42851  161.00
3692.771  0.41424  160.84
3698.795  0.41544  158.64
3704.819  0.41787  158.32
3710.843  0.41970  156.96
3716.867  0.41179  154.76
3722.892  0.41010  153.80
3728.916  0.39554  151.20
3734.940  0.40183  149.04
3740.964  0.39448  148.51
3746.988  0.39485  146.67
3753.012  0.38842  143.57
3759.036  0.39282  141.95
3765.060  0.38466  141.26
3771.084  0.36902  141.26
3777.108  0.38309  138.83
3783.133  0.37902  136.96
3789.157  0.38016  133.60
3795.181  0.37658  131.57
3801.205  0.36579  133.30
3807.229  0.36953  127.77
3813.253  0.37105  127.02
3819.277  0.37574  124.60
3825.301  0.36268  123.24
3831.325  0.35930  124.32
3837.349  0.35225  121.42
3843.373  0.33511  121.17
3849.398  0.36296  121.68
3855.422  0.34158  117.47
3861.446  0.32430  115.29
3867.470  0.34429  114.70
3873.494  0.31074  114.92
3879.518  0.31659  108.27
3885.542  0.32418  106.24
3891.566  0.29785  107.39
3897.590  0.33609  106.61
3903.614  0.32321   97.51
3909.639  0.32539   92.07
3915.663  0.30609   89.79
3921.687  0.30300   88.67
3927.711  0.28969   80.31
3933.735  0.27470   81.18
3939.759  0.26024   77.31
3945.783  0.25368   70.60
3951.807  0.23366   68.67
3957.831  0.23517   66.26
3963.855  0.23355   62.52
3969.880  0.21983   59.87
3975.904  0.21511   55.74
3981.928  0.20699   55.12
3987.952  0.20170   53.22
3993.976  0.19806   49.26
4000.000  0.18552   44.86
