# MHz S MA R 50
!   freq        S11       
2500.000  0.79476  -93.19
2506.024  0.80244  -93.30
2512.048  0.80113  -93.16
2518.072  0.79171  -92.51
2524.096  0.79738  -94.27
2530.120  0.79768  -94.39
2536.145  0.79316  -94.50
2542.169  0.79636  -94.83
2548.193  0.78588  -94.89
2554.217  0.78809  -95.63
2560.241  0.77824  -95.48
2566.265  0.77948  -95.74
2572.289  0.77242  -96.13
2578.313  0.76972  -96.96
2584.337  0.76640  -97.59
2590.361  0.77167  -98.61
2596.386  0.76388  -99.64
2602.410  0.75422  -99.72
2608.434  0.74391 -100.92
2614.458  0.74337 -101.91
2620.482  0.74137 -103.12
2626.506  0.72565 -103.24
2632.530  0.73462 -103.57
2638.554  0.72801 -104.67
2644.578  0.72724 -104.90
2650.602  0.72249 -106.02
2656.627  0.72660 -105.84
2662.651  0.71560 -107.92
2668.675  0.71211 -108.73
2674.699  0.71272 -109.69
2680.723  0.70453 -109.16
2686.747  0.69988 -110.17
2692.771  0.69851 -110.33
2698.795  0.70100 -111.60
2704.819  0.69461 -112.38
2710.843  0.68985 -112.35
2716.867  0.68235 -113.44
2722.892  0.66860 -115.10
2728.916  0.66673 -114.17
2734.940  0.66675 -115.23
2740.964  0.66515 -114.65
2746.988  0.65179 -116.54
2753.012  0.64800 -118.10
2759.036  0.63830 -119.27
2765.060  0.62296 -119.45
2771.084  0.61877 -121.69
2777.108  0.61356 -122.53
2783.133  0.60526 -123.25
2789.157  0.59874 -125.00
2795.181  0.59023 -126.24
2801.205  0.59005 -127.43
2807.229  0.58374 -127.20
2813.253  0.57740 -129.76
2819.277  0.57513 -130.53
2825.301  0.57287 -131.86
2831.325  0.56588 -132.67
2837.349  0.55884 -133.29
2843.373  0.55395 -133.58
2849.398  0.54506 -134.68
2855.422  0.53360 -134.66
2861.446  0.52705 -135.26
2867.470  0.51721 -135.81
2873.494  0.50461 -136.20
2879.518  0.49222 -136.78
2885.542  0.47975 -135.91
2891.566  0.46901 -137.28
2897.590  0.45569 -137.48
2903.614  0.44298 -137.64
2909.639  0.42687 -138.15
2915.663  0.40740 -138.91
2921.687  0.39562 -139.32
2927.711  0.38235 -139.92
2933.735  0.36176 -140.76
2939.759  0.35379 -140.25
2945.783  0.33067 -141.67
2951.807  0.31734 -142.66
2957.831  0.30193 -141.96
2963.855  0.29137 -141.45
2969.880  0.27766 -141.64
2975.904  0.27128 -142.40
2981.928  0.25850 -140.59
2987.952  0.24735 -139.78
2993.976  0.23609 -136.81
3000.000  0.22297 -134.46
3006.024  0.22240 -132.57
3012.048  0.21067 -129.52
3018.072  0.20599 -125.71
3024.096  0.20515 -120.47
3030.120  0.20075 -116.64
3036.145  0.19703 -112.28
3042.169  0.20552 -106.56
3048.193  0.20046 -103.42
3054.217  0.20752  -99.58
3060.241  0.21507  -95.18
3066.265  0.22304  -92.27
3072.289  0.23051  -89.65
3078.313  0.23795  -87.29
3084.337  0.24409  -84.40
3090.361  0.25029  -84.95
3096.386  0.26118  -84.25
3102.410  0.26880  -83.20
3108.434  0.28283  -83.63
3114.458  0.29590  -83.28
3120.482  0.29841  -84.94
3126.506  0.30939  -84.95
3132.530  0.32342  -86.83
3138.554  0.33379  -88.35
3144.578  0.34171  -88.65
3150.602  0.35217  -90.62
3156.627  0.36991  -92.89
3162.651  0.37660  -94.39
3168.675  0.38772  -95.74
3174.699  0.40062  -96.35
3180.723  0.41236  -98.25
3186.747  0.42700 -100.01
3192.771  0.43468 -100.69
3198.795  0.44089 -101.33
3204.819  0.45714 -102.00
3210.843  0.46835 -102.59
3216.867  0.47469 -103.14
3222.892  0.48087 -104.59
3228.916  0.48378 -106.02
3234.940  0.49064 -106.58
3240.964  0.49108 -107.12
3246.988  0.48982 -107.58
3253.012  0.49219 -108.97
3259.036  0.48933 -110.28
3265.060  0.48261 -110.87
3271.084  0.48101 -113.08
3277.108  0.47775 -115.14
3283.133  0.47386 -117.16
3289.157  0.48112 -117.84
3295.181  0.48147 -120.14
3301.205  0.47700 -122.40
3307.229  0.48334 -124.11
3313.253  0.48277 -125.24
3319.277  0.46780 -125.92
3325.301  0.47411 -128.83
3331.325  0.47833 -130.94
3337.349  0.47856 -132.24
3343.373  0.48101 -133.04
3349.398  0.47350 -134.42
3355.422  0.46957 -137.10
3361.446  0.47146 -137.83
3367.470  0.47397 -139.57
3373.494  0.47638 -139.05
3379.518  0.47537 -140.05
3385.542  0.47409 -141.05
3391.566  0.47626 -142.62
3397.590  0.47314 -144.47
3403.614  0.45833 -143.57
3409.639  0.46619 -144.48
3415.663  0.45476 -145.55
3421.687  0.45323 -146.16
3427.711  0.44685 -146.80
3433.735  0.43741 -148.68
3439.759  0.43069 -147.98
3445.783  0.42886 -148.98
3451.807  0.42333 -150.84
3457.831  0.43184 -153.21
3463.855  0.41977 -153.30
3469.880  0.42085 -154.84
3475.904  0.41905 -156.15
3481.928  0.42945 -156.33
3487.952  0.41978 -156.94
3493.976  0.41875 -157.87
3500.000  0.41852 -158.18
3506.024  0.41519 -159.71
3512.048  0.41678 -160.41
3518.072  0.42177 -160.11
3524.096  0.41003 -159.92
3530.120  0.41034 -161.29
3536.145  0.42330 -161.20
3542.169  0.43273 -161.98
3548.193  0.42593 -162.66
3554.217  0.42610 -163.23
3560.241  0.43117 -164.30
3566.265  0.42838 -162.85
3572.289  0.42663 -166.88
3578.313  0.42373 -165.15
3584.337  0.42751 -168.25
3590.361  0.42723 -167.19
3596.386  0.42063 -168.79
3602.410  0.42013 -170.63
3608.434  0.42155 -170.61
3614.458  0.43186 -173.44
3620.482  0.42210 -174.18
3626.506  0.41641 -174.13
3632.530  0.42223 -175.36
3638.554  0.42807 -177.52
3644.578  0.43287 -179.15
3650.602  0.43166  179.75
3656.627  0.42926  177.59
3662.651  0.43387  176.17
3668.675  0.43911  176.10
3674.699  0.43901  174.10
3680.723  0.43281  172.49
3686.747  0.43587  170.78
3692.771  0.42783  170.79
3698.795  0.44418  168.61
3704.819  0.44497  167.37
3710.843  0.44254  167.14
3716.867  0.44782  165.40
3722.892  0.44282  164.46
3728.916  0.42925  162.13
3734.940  0.43023  159.16
3740.964  0.43571  160.07
3746.988  0.43873  158.04
3753.012  0.43369  155.73
3759.036  0.43641  152.62
3765.060  0.42320  152.41
3771.084  0.41539  150.85
3777.108  0.42004  150.96
3783.133  0.42887  147.92
3789.157  0.42850  144.64
3795.181  0.43168  142.17
3801.205  0.41186  143.12
3807.229  0.41668  138.20
3813.253  0.41620  139.00
3819.277  0.42839  136.00
3825.301  0.43035  134.45
3831.325  0.43022  136.01
3837.349  0.41550  133.97
3843.373  0.40402  132.16
3849.398  0.42705  133.42
3855.422  0.40826  129.84
3861.446  0.40199  128.80
3867.470  0.39652  126.37
3873.494  0.38340  125.93
3879.518  0.39383  125.55
3885.542  0.40097  121.88
3891.566  0.40944  122.12
3897.590  0.43949  119.53
3903.614  0.40563  115.37
3909.639  0.40492  110.49
3915.663  0.39139  109.37
3921.687  0.39791  103.03
3927.711  0.36740   97.75
3933.735  0.36277  102.35
3939.759  0.35866   98.19
3945.783  0.33946   91.97
3951.807  0.32529   93.05
3957.831  0.31579   87.76
3963.855  0.31105   85.93
3969.880  0.30469   84.12
3975.904  0.30361   82.84
3981.928  0.29985   81.32
3987.952  0.29192   79.79
3993.976  0.28155   76.78
4000.000  0.26800   74.61
