# MHz S MA R 50
!   freq        S11       
2500.000  0.78092  -96.86
2506.024  0.78569  -96.78
2512.048  0.78451  -96.13
2518.072  0.76633  -96.45
2524.096  0.77133  -96.35
2530.120  0.76900  -96.73
2536.145  0.76117  -97.12
2542.169  0.76191  -96.73
2548.193  0.74877  -96.92
2554.217  0.74498  -97.88
2560.241  0.73565  -97.46
2566.265  0.73620  -98.15
2572.289  0.73138  -98.12
2578.313  0.72551  -98.50
2584.337  0.72588  -98.19
2590.361  0.72467  -99.72
2596.386  0.71118 -100.35
2602.410  0.69912 -100.14
2608.434  0.69759 -102.00
2614.458  0.69629 -102.84
2620.482  0.69592 -103.19
2626.506  0.67732 -103.74
2632.530  0.68128 -105.17
2638.554  0.68022 -104.91
2644.578  0.67954 -105.01
2650.602  0.67356 -106.78
2656.627  0.67859 -106.85
2662.651  0.66865 -107.32
2668.675  0.66416 -108.42
2674.699  0.66631 -109.03
2680.723  0.66095 -108.91
2686.747  0.65917 -110.53
2692.771  0.65500 -110.31
2698.795  0.65130 -111.45
2704.819  0.64810 -111.87
2710.843  0.64010 -111.86
2716.867  0.63105 -112.27
2722.892  0.62376 -113.20
2728.916  0.61752 -113.51
2734.940  0.61385 -113.71
2740.964  0.61227 -113.62
2746.988  0.60493 -115.35
2753.012  0.59238 -116.80
2759.036  0.58311 -117.64
2765.060  0.56911 -117.91
2771.084  0.56553 -118.81
2777.108  0.55905 -120.19
2783.133  0.55012 -120.69
2789.157  0.54126 -123.57
2795.181  0.53705 -123.91
2801.205  0.53247 -124.96
2807.229  0.52841 -124.24
2813.253  0.52317 -125.90
2819.277  0.51770 -127.11
2825.301  0.51878 -128.55
2831.325  0.50836 -128.05
2837.349  0.50527 -129.20
2843.373  0.49671 -129.42
2849.398  0.48777 -129.34
2855.422  0.48408 -129.68
2861.446  0.47519 -129.85
2867.470  0.47119 -129.71
2873.494  0.45691 -130.09
2879.518  0.44656 -130.20
2885.542  0.43780 -128.54
2891.566  0.42907 -129.17
2897.590  0.41898 -129.04
2903.614  0.40561 -129.58
2909.639  0.39181 -128.43
2915.663  0.37750 -129.49
2921.687  0.36683 -129.43
2927.711  0.35074 -130.41
2933.735  0.34418 -128.44
2939.759  0.33033 -128.46
2945.783  0.31376 -129.14
2951.807  0.30337 -129.79
2957.831  0.29191 -127.93
2963.855  0.28406 -127.48
2969.880  0.28008 -127.30
2975.904  0.27021 -125.48
2981.928  0.26648 -125.49
2987.952  0.26042 -123.15
2993.976  0.25620 -120.05
3000.000  0.25195 -118.95
3006.024  0.25385 -116.28
3012.048  0.24557 -114.29
3018.072  0.25284 -111.34
3024.096  0.25117 -108.04
3030.120  0.25436 -105.95
3036.145  0.25885 -102.38
3042.169  0.26587  -99.80
3048.193  0.26545  -96.84
3054.217  0.26884  -95.72
3060.241  0.27655  -93.72
3066.265  0.28730  -91.23
3072.289  0.29214  -90.06
3078.313  0.30034  -88.77
3084.337  0.30272  -87.06
3090.361  0.30682  -88.11
3096.386  0.31120  -87.28
3102.410  0.31415  -87.81
3108.434  0.32815  -87.78
3114.458  0.33531  -87.60
3120.482  0.33921  -89.08
3126.506  0.35007  -88.99
3132.530  0.36315  -90.51
3138.554  0.37101  -90.37
3144.578  0.37936  -93.41
3150.602  0.38584  -93.98
3156.627  0.40031  -95.51
3162.651  0.40359  -96.65
3168.675  0.42015  -99.06
3174.699  0.42723  -99.27
3180.723  0.44236 -101.41
3186.747  0.45106 -102.39
3192.771  0.45537 -102.64
3198.795  0.46073 -103.02
3204.819  0.47525 -103.29
3210.843  0.48289 -104.93
3216.867  0.49244 -104.61
3222.892  0.49882 -105.61
3228.916  0.50023 -106.68
3234.940  0.50497 -107.77
3240.964  0.50329 -108.37
3246.988  0.50126 -109.30
3253.012  0.50547 -109.53
3259.036  0.49996 -111.17
3265.060  0.49421 -111.77
3271.084  0.49728 -112.97
3277.108  0.48994 -113.76
3283.133  0.48874 -117.40
3289.157  0.49498 -115.95
3295.181  0.49742 -118.60
3301.205  0.49247 -120.76
3307.229  0.49295 -121.19
3313.253  0.50293 -123.54
3319.277  0.49963 -124.66
3325.301  0.49750 -126.55
3331.325  0.49767 -128.72
3337.349  0.50156 -129.79
3343.373  0.50029 -131.41
3349.398  0.49917 -132.39
3355.422  0.50143 -133.87
3361.446  0.49903 -135.56
3367.470  0.50323 -136.52
3373.494  0.51125 -135.67
3379.518  0.51435 -137.24
3385.542  0.50757 -138.23
3391.566  0.51778 -140.03
3397.590  0.51141 -140.84
3403.614  0.50641 -141.16
3409.639  0.50737 -142.07
3415.663  0.49857 -143.44
3421.687  0.49660 -145.13
3427.711  0.49191 -143.99
3433.735  0.49467 -146.81
3439.759  0.48223 -147.12
3445.783  0.48089 -147.85
3451.807  0.47317 -148.81
3457.831  0.48280 -151.98
3463.855  0.47722 -152.68
3469.880  0.47985 -154.33
3475.904  0.48105 -155.98
3481.928  0.48868 -157.00
3487.952  0.47522 -158.01
3493.976  0.47597 -158.97
3500.000  0.47545 -159.79
3506.024  0.47380 -161.38
3512.048  0.47266 -161.43
3518.072  0.47426 -162.68
3524.096  0.47010 -162.24
3530.120  0.46573 -164.27
3536.145  0.46726 -165.23
3542.169  0.48786 -165.21
3548.193  0.47545 -166.65
3554.217  0.47652 -167.53
3560.241  0.46613 -168.72
3566.265  0.46828 -168.45
3572.289  0.46458 -170.93
3578.313  0.45856 -171.20
3584.337  0.45589 -172.47
3590.361  0.45202 -173.36
3596.386  0.44526 -173.09
3602.410  0.44159 -175.80
3608.434  0.44359 -176.39
3614.458  0.44167 -178.06
3620.482  0.43508 -178.21
3626.506  0.43725  179.76
3632.530  0.44547  178.74
3638.554  0.45094  177.64
3644.578  0.44880  176.22
3650.602  0.44798  175.08
3656.627  0.44637  173.37
3662.651  0.44593  172.02
3668.675  0.44976  172.16
3674.699  0.45171  169.26
3680.723  0.44983  167.97
3686.747  0.44502  166.63
3692.771  0.44959  166.81
3698.795  0.45314  165.82
3704.819  0.45534  163.85
3710.843  0.45545  163.00
3716.867  0.45463  160.33
3722.892  0.45383  160.45
3728.916  0.44921  160.16
3734.940  0.44665  153.73
3740.964  0.44356  155.65
3746.988  0.44163  153.20
3753.012  0.45231  149.80
3759.036  0.44898  149.26
3765.060  0.43704  149.58
3771.084  0.44530  146.80
3777.108  0.44455  146.72
3783.133  0.44713  142.55
3789.157  0.44411  140.66
3795.181  0.45108  137.47
3801.205  0.44643  138.97
3807.229  0.44264  135.40
3813.253  0.43531  134.76
3819.277  0.44506  131.23
3825.301  0.45947  129.95
3831.325  0.44638  130.82
3837.349  0.42523  127.39
3843.373  0.42339  126.40
3849.398  0.43494  125.55
3855.422  0.42215  123.26
3861.446  0.41556  123.55
3867.470  0.42636  122.38
3873.494  0.40600  118.23
3879.518  0.39681  115.86
3885.542  0.42497  111.37
3891.566  0.41749  111.67
3897.590  0.44557  110.00
3903.614  0.42086  104.94
3909.639  0.44793   99.55
3915.663  0.41837   96.10
3921.687  0.40498   94.74
3927.711  0.40312   88.12
3933.735  0.37252   89.59
3939.759  0.36758   86.43
3945.783  0.34725   80.77
3951.807  0.33023   80.34
3957.831  0.32371   76.45
3963.855  0.32104   71.68
3969.880  0.32289   71.26
3975.904  0.31923   68.80
3981.928  0.30499   67.97
3987.952  0.29281   64.45
3993.976  0.28303   63.37
4000.000  0.27524   61.32
