# MHz S MA R 50
!   freq        S11       
2500.000  0.73087 -100.83
2506.024  0.74033 -101.22
2512.048  0.73950 -100.97
2518.072  0.72508 -101.92
2524.096  0.72704 -103.39
2530.120  0.71916 -104.13
2536.145  0.70521 -103.98
2542.169  0.69949 -104.59
2548.193  0.69032 -105.24
2554.217  0.67897 -106.13
2560.241  0.66150 -107.12
2566.265  0.65322 -107.50
2572.289  0.64467 -108.21
2578.313  0.63246 -108.16
2584.337  0.62066 -109.49
2590.361  0.61011 -111.12
2596.386  0.58754 -111.71
2602.410  0.56383 -112.54
2608.434  0.54961 -113.73
2614.458  0.53185 -115.48
2620.482  0.51860 -116.20
2626.506  0.49926 -115.96
2632.530  0.48460 -118.28
2638.554  0.46991 -117.77
2644.578  0.45233 -118.06
2650.602  0.43496 -117.87
2656.627  0.42018 -116.27
2662.651  0.40288 -116.13
2668.675  0.38728 -116.53
2674.699  0.37409 -114.98
2680.723  0.35996 -113.63
2686.747  0.34960 -112.08
2692.771  0.33533 -109.36
2698.795  0.32340 -106.59
2704.819  0.31879 -103.28
2710.843  0.31169  -99.82
2716.867  0.30487  -97.27
2722.892  0.30288  -93.67
2728.916  0.30582  -89.85
2734.940  0.30869  -87.72
2740.964  0.31760  -83.29
2746.988  0.31740  -82.40
2753.012  0.32101  -80.74
2759.036  0.32791  -80.80
2765.060  0.33654  -77.85
2771.084  0.34618  -77.77
2777.108  0.35137  -77.33
2783.133  0.36269  -76.09
2789.157  0.37077  -77.24
2795.181  0.37515  -77.40
2801.205  0.39223  -78.02
2807.229  0.40456  -77.69
2813.253  0.41389  -78.92
2819.277  0.42797  -79.02
2825.301  0.44156  -80.84
2831.325  0.45408  -80.73
2837.349  0.46487  -82.26
2843.373  0.47364  -82.59
2849.398  0.48684  -82.74
2855.422  0.50109  -83.75
2861.446  0.50735  -84.06
2867.470  0.51556  -84.64
2873.494  0.52216  -84.32
2879.518  0.53493  -85.34
2885.542  0.54049  -84.62
2891.566  0.54355  -85.40
2897.590  0.55298  -85.72
2903.614  0.55579  -85.73
2909.639  0.55423  -86.25
2915.663  0.56218  -86.23
2921.687  0.55583  -87.15
2927.711  0.56072  -88.47
2933.735  0.55967  -89.07
2939.759  0.56388  -89.25
2945.783  0.55089  -88.38
2951.807  0.55298  -90.05
2957.831  0.54314  -90.87
2963.855  0.55662  -91.63
2969.880  0.55520  -93.04
2975.904  0.55608  -94.36
2981.928  0.55716  -94.81
2987.952  0.55602  -95.01
2993.976  0.56375  -95.41
3000.000  0.56290  -96.59
3006.024  0.56895  -97.69
3012.048  0.56313  -97.65
3018.072  0.57240  -97.99
3024.096  0.57712  -97.90
3030.120  0.57907  -98.69
3036.145  0.58234  -98.24
3042.169  0.58957  -99.47
3048.193  0.57810  -98.86
3054.217  0.58080  -99.18
3060.241  0.58535  -98.80
3066.265  0.59009  -99.31
3072.289  0.58905 -100.20
3078.313  0.59002 -100.88
3084.337  0.57674 -100.19
3090.361  0.57051 -101.81
3096.386  0.57532 -102.65
3102.410  0.56963 -103.08
3108.434  0.57251 -104.47
3114.458  0.57071 -105.74
3120.482  0.56432 -106.17
3126.506  0.56092 -106.84
3132.530  0.56909 -108.84
3138.554  0.56828 -108.91
3144.578  0.57359 -111.18
3150.602  0.56918 -111.41
3156.627  0.57398 -112.67
3162.651  0.57535 -114.69
3168.675  0.57464 -115.31
3174.699  0.58141 -115.91
3180.723  0.58122 -116.67
3186.747  0.57819 -118.05
3192.771  0.58242 -117.86
3198.795  0.57773 -118.03
3204.819  0.58265 -118.82
3210.843  0.58521 -119.39
3216.867  0.58542 -118.68
3222.892  0.58884 -118.87
3228.916  0.58785 -120.06
3234.940  0.58200 -121.03
3240.964  0.57962 -121.13
3246.988  0.56488 -121.11
3253.012  0.56751 -121.68
3259.036  0.56170 -122.40
3265.060  0.55925 -121.63
3271.084  0.55075 -122.88
3277.108  0.54741 -124.35
3283.133  0.53663 -125.42
3289.157  0.54591 -125.35
3295.181  0.54629 -128.09
3301.205  0.53890 -128.17
3307.229  0.55155 -131.19
3313.253  0.54555 -130.85
3319.277  0.54495 -132.05
3325.301  0.54483 -133.82
3331.325  0.53600 -134.84
3337.349  0.54219 -136.12
3343.373  0.54591 -137.44
3349.398  0.55005 -138.16
3355.422  0.54973 -140.10
3361.446  0.55180 -140.89
3367.470  0.55514 -141.35
3373.494  0.56095 -141.17
3379.518  0.55670 -142.77
3385.542  0.55914 -142.91
3391.566  0.56247 -144.90
3397.590  0.56186 -146.94
3403.614  0.55464 -146.00
3409.639  0.55771 -146.79
3415.663  0.55119 -147.30
3421.687  0.54834 -149.81
3427.711  0.53970 -150.16
3433.735  0.53853 -152.26
3439.759  0.53789 -152.46
3445.783  0.53641 -155.15
3451.807  0.53098 -154.73
3457.831  0.54419 -157.79
3463.855  0.53072 -158.78
3469.880  0.53531 -160.86
3475.904  0.54135 -162.53
3481.928  0.54176 -162.97
3487.952  0.53056 -163.95
3493.976  0.53182 -165.32
3500.000  0.52398 -165.65
3506.024  0.52601 -167.61
3512.048  0.52240 -168.04
3518.072  0.52347 -169.88
3524.096  0.51100 -169.91
3530.120  0.51318 -171.55
3536.145  0.50951 -172.17
3542.169  0.51840 -172.85
3548.193  0.51117 -175.03
3554.217  0.50798 -175.63
3560.241  0.50571 -177.13
3566.265  0.49533 -177.61
3572.289  0.49091 -179.87
3578.313  0.48260  179.28
3584.337  0.48041  178.86
3590.361  0.47953  175.66
3596.386  0.46775  175.75
3602.410  0.46295  173.36
3608.434  0.46142  172.26
3614.458  0.45433  170.62
3620.482  0.44691  169.18
3626.506  0.44335  166.80
3632.530  0.44672  165.76
3638.554  0.44187  164.17
3644.578  0.44407  162.07
3650.602  0.43853  160.84
3656.627  0.43099  157.77
3662.651  0.43045  157.79
3668.675  0.41924  157.91
3674.699  0.42039  155.05
3680.723  0.40827  153.29
3686.747  0.41119  150.66
3692.771  0.40244  151.39
3698.795  0.39807  149.46
3704.819  0.39551  147.69
3710.843  0.38317  143.98
3716.867  0.38783  143.07
3722.892  0.37345  141.84
3728.916  0.36535  140.07
3734.940  0.37023  137.80
3740.964  0.35929  135.57
3746.988  0.35308  133.10
3753.012  0.35067  132.30
3759.036  0.35288  128.33
3765.060  0.32207  127.58
3771.084  0.32231  126.36
3777.108  0.32879  125.06
3783.133  0.32763  122.37
3789.157  0.31263  118.51
3795.181  0.30941  114.07
3801.205  0.29676  114.79
3807.229  0.29166  112.07
3813.253  0.28313  109.27
3819.277  0.28338  108.20
3825.301  0.28388  104.83
3831.325  0.26966  105.22
3837.349  0.24322  101.24
3843.373  0.24450   98.62
3849.398  0.23445   97.36
3855.422  0.21982   92.00
3861.446  0.20080   87.28
3867.470  0.21484   91.55
3873.494  0.18477   82.99
3879.518  0.18058   80.85
3885.542  0.17343   78.80
3891.566  0.15655   78.97
3897.590  0.18819   77.57
3903.614  0.15905   66.40
3909.639  0.16194   56.79
3915.663  0.14194   53.15
3921.687  0.14447   49.36
3927.711  0.15065   44.32
3933.735  0.11685   41.49
3939.759  0.12646   37.47
3945.783  0.12955   29.93
3951.807  0.10473   20.21
3957.831  0.11830   19.01
3963.855  0.12030   13.39
3969.880  0.11131   10.57
3975.904  0.10791    6.71
3981.928  0.09863    5.35
3987.952  0.09439  -11.70
3993.976  0.08857  -11.37
4000.000  0.09849  -28.71
