# MHz S MA R 50
!   freq        S11       
2500.000  0.76499  -94.02
2506.024  0.78339  -93.95
2512.048  0.77774  -94.10
2518.072  0.76627  -93.62
2524.096  0.78030  -94.77
2530.120  0.77982  -95.18
2536.145  0.77669  -95.13
2542.169  0.77918  -95.94
2548.193  0.77050  -95.78
2554.217  0.76680  -96.37
2560.241  0.75637  -96.67
2566.265  0.75520  -96.87
2572.289  0.75099  -96.51
2578.313  0.74686  -97.00
2584.337  0.74759  -99.07
2590.361  0.74833  -97.65
2596.386  0.74170  -99.78
2602.410  0.72972  -99.54
2608.434  0.71799 -101.05
2614.458  0.72137 -101.58
2620.482  0.72142 -102.90
2626.506  0.70760 -102.49
2632.530  0.70726 -103.02
2638.554  0.70839 -104.38
2644.578  0.70592 -104.32
2650.602  0.70173 -105.89
2656.627  0.70791 -106.09
2662.651  0.69769 -107.01
2668.675  0.69372 -107.57
2674.699  0.69382 -108.17
2680.723  0.69080 -109.21
2686.747  0.68494 -110.03
2692.771  0.68544 -110.37
2698.795  0.68471 -111.24
2704.819  0.67670 -111.58
2710.843  0.67452 -111.80
2716.867  0.66056 -112.82
2722.892  0.65737 -113.39
2728.916  0.64939 -113.60
2734.940  0.64611 -114.42
2740.964  0.64107 -113.77
2746.988  0.63239 -115.12
2753.012  0.62279 -117.41
2759.036  0.61751 -119.03
2765.060  0.60367 -118.76
2771.084  0.59660 -120.45
2777.108  0.58855 -121.46
2783.133  0.58120 -123.10
2789.157  0.57222 -123.79
2795.181  0.56231 -125.23
2801.205  0.56160 -126.18
2807.229  0.55322 -127.60
2813.253  0.54714 -128.71
2819.277  0.54058 -128.99
2825.301  0.53765 -130.39
2831.325  0.53232 -131.08
2837.349  0.52257 -131.24
2843.373  0.51178 -132.03
2849.398  0.50244 -132.12
2855.422  0.49405 -131.90
2861.446  0.48502 -132.06
2867.470  0.47711 -132.71
2873.494  0.46189 -132.49
2879.518  0.45179 -132.27
2885.542  0.44180 -130.96
2891.566  0.42892 -131.89
2897.590  0.41854 -131.22
2903.614  0.40802 -131.20
2909.639  0.39092 -130.08
2915.663  0.37123 -131.22
2921.687  0.35632 -130.14
2927.711  0.34932 -129.70
2933.735  0.34271 -129.48
2939.759  0.33028 -128.40
2945.783  0.31680 -127.85
2951.807  0.30827 -127.22
2957.831  0.29762 -127.29
2963.855  0.29015 -125.93
2969.880  0.28670 -126.05
2975.904  0.28373 -124.86
2981.928  0.27846 -123.16
2987.952  0.27521 -122.41
2993.976  0.27509 -120.76
3000.000  0.26998 -118.83
3006.024  0.27342 -117.08
3012.048  0.26537 -115.33
3018.072  0.27372 -113.47
3024.096  0.27334 -110.48
3030.120  0.27427 -109.12
3036.145  0.27763 -105.78
3042.169  0.28345 -103.88
3048.193  0.27970 -102.14
3054.217  0.28511  -99.50
3060.241  0.28999  -97.42
3066.265  0.29538  -97.19
3072.289  0.29661  -95.16
3078.313  0.30495  -94.71
3084.337  0.30722  -92.22
3090.361  0.30879  -91.96
3096.386  0.31306  -92.56
3102.410  0.30873  -93.04
3108.434  0.33249  -92.02
3114.458  0.33433  -92.89
3120.482  0.33467  -93.64
3126.506  0.34465  -92.41
3132.530  0.35759  -94.26
3138.554  0.36359  -95.72
3144.578  0.37407  -95.09
3150.602  0.38304  -95.95
3156.627  0.39839  -99.98
3162.651  0.39687  -99.00
3168.675  0.41193 -101.11
3174.699  0.43115 -102.44
3180.723  0.43438 -103.10
3186.747  0.44482 -104.40
3192.771  0.45100 -104.59
3198.795  0.46187 -105.01
3204.819  0.47192 -105.80
3210.843  0.48161 -107.32
3216.867  0.48994 -106.43
3222.892  0.49724 -108.27
3228.916  0.50370 -108.76
3234.940  0.50260 -109.54
3240.964  0.50111 -110.58
3246.988  0.50011 -111.75
3253.012  0.49978 -111.62
3259.036  0.50010 -112.48
3265.060  0.49451 -114.51
3271.084  0.49580 -114.38
3277.108  0.48948 -116.95
3283.133  0.48302 -117.81
3289.157  0.49394 -119.02
3295.181  0.48992 -120.82
3301.205  0.49216 -123.70
3307.229  0.49659 -124.85
3313.253  0.49539 -126.23
3319.277  0.48924 -127.72
3325.301  0.49116 -129.62
3331.325  0.48633 -131.53
3337.349  0.49725 -133.14
3343.373  0.49600 -134.64
3349.398  0.49158 -135.88
3355.422  0.49118 -137.69
3361.446  0.49053 -138.65
3367.470  0.49467 -139.48
3373.494  0.49435 -139.65
3379.518  0.49978 -139.69
3385.542  0.49312 -141.52
3391.566  0.49424 -142.88
3397.590  0.49551 -144.89
3403.614  0.48785 -143.10
3409.639  0.48485 -145.47
3415.663  0.47641 -146.28
3421.687  0.47798 -146.16
3427.711  0.47078 -147.78
3433.735  0.46386 -149.14
3439.759  0.45814 -150.15
3445.783  0.45761 -150.94
3451.807  0.45174 -151.62
3457.831  0.45778 -153.87
3463.855  0.44452 -153.31
3469.880  0.44551 -155.17
3475.904  0.45147 -157.33
3481.928  0.46267 -157.53
3487.952  0.44437 -158.27
3493.976  0.44387 -159.09
3500.000  0.44520 -159.31
3506.024  0.44641 -161.45
3512.048  0.44550 -161.17
3518.072  0.44856 -161.70
3524.096  0.43687 -161.86
3530.120  0.44068 -161.88
3536.145  0.44333 -164.10
3542.169  0.45563 -163.89
3548.193  0.45069 -164.42
3554.217  0.45488 -165.83
3560.241  0.44826 -166.52
3566.265  0.44930 -166.13
3572.289  0.45521 -166.85
3578.313  0.44104 -168.11
3584.337  0.44519 -169.51
3590.361  0.44206 -169.99
3596.386  0.43848 -169.67
3602.410  0.43426 -172.54
3608.434  0.43967 -173.58
3614.458  0.44226 -174.06
3620.482  0.43643 -175.82
3626.506  0.42837 -176.93
3632.530  0.44268 -178.32
3638.554  0.44591 -179.79
3644.578  0.44965  178.94
3650.602  0.44810  177.50
3656.627  0.43959  175.03
3662.651  0.45299  175.35
3668.675  0.44693  174.92
3674.699  0.45045  172.06
3680.723  0.44888  170.90
3686.747  0.44251  169.16
3692.771  0.44461  170.36
3698.795  0.43936  167.83
3704.819  0.45359  167.81
3710.843  0.44768  164.91
3716.867  0.44683  165.03
3722.892  0.45481  164.22
3728.916  0.43756  160.45
3734.940  0.44064  160.09
3740.964  0.43770  158.09
3746.988  0.43420  158.45
3753.012  0.44366  155.61
3759.036  0.44214  153.17
3765.060  0.42468  152.89
3771.084  0.42642  151.33
3777.108  0.43248  149.42
3783.133  0.44239  147.78
3789.157  0.43908  145.79
3795.181  0.43972  141.97
3801.205  0.43211  143.35
3807.229  0.43233  141.60
3813.253  0.42934  138.14
3819.277  0.43152  137.50
3825.301  0.43618  136.31
3831.325  0.43384  137.49
3837.349  0.42545  133.80
3843.373  0.41536  136.04
3849.398  0.44459  133.16
3855.422  0.41165  130.95
3861.446  0.40846  132.13
3867.470  0.41809  132.06
3873.494  0.40278  127.78
3879.518  0.40361  125.29
3885.542  0.41286  124.66
3891.566  0.40131  123.54
3897.590  0.42332  123.94
3903.614  0.42621  116.44
3909.639  0.42320  112.79
3915.663  0.39456  109.44
3921.687  0.41232  105.76
3927.711  0.39387  101.66
3933.735  0.38050  102.08
3939.759  0.37220   99.72
3945.783  0.36061   94.66
3951.807  0.33775   93.10
3957.831  0.32866   91.16
3963.855  0.32669   88.48
3969.880  0.32350   86.65
3975.904  0.31324   84.05
3981.928  0.30892   83.57
3987.952  0.30357   81.84
3993.976  0.29156   79.65
4000.000  0.28195   78.35
