# MHz S MA R 50
!   freq        S11       
2500.000  0.75826 -102.82
2506.024  0.76011 -103.80
2512.048  0.75441 -103.41
2518.072  0.73251 -104.12
2524.096  0.73865 -106.35
2530.120  0.73044 -106.79
2536.145  0.71482 -106.58
2542.169  0.70927 -107.61
2548.193  0.69818 -108.36
2554.217  0.68817 -109.80
2560.241  0.66790 -110.85
2566.265  0.65768 -111.43
2572.289  0.64276 -112.39
2578.313  0.62732 -113.93
2584.337  0.61531 -115.12
2590.361  0.60143 -115.65
2596.386  0.58304 -118.89
2602.410  0.55099 -119.28
2608.434  0.53059 -120.96
2614.458  0.51525 -121.58
2620.482  0.49769 -123.35
2626.506  0.47287 -123.56
2632.530  0.45181 -125.33
2638.554  0.43281 -126.51
2644.578  0.40993 -126.41
2650.602  0.38374 -127.08
2656.627  0.36489 -125.77
2662.651  0.33844 -125.60
2668.675  0.31353 -125.49
2674.699  0.29627 -123.69
2680.723  0.26917 -119.87
2686.747  0.24869 -116.45
2692.771  0.23429 -111.98
2698.795  0.21637 -106.21
2704.819  0.20976  -98.45
2710.843  0.20130  -90.49
2716.867  0.20648  -83.49
2722.892  0.20908  -76.39
2728.916  0.22667  -69.27
2734.940  0.24524  -64.97
2740.964  0.26605  -59.96
2746.988  0.28284  -58.38
2753.012  0.30396  -55.86
2759.036  0.32368  -55.54
2765.060  0.34577  -55.15
2771.084  0.36719  -55.92
2777.108  0.38372  -55.64
2783.133  0.40363  -55.92
2789.157  0.41869  -58.01
2795.181  0.43709  -58.99
2801.205  0.45735  -60.58
2807.229  0.47208  -61.63
2813.253  0.49992  -63.45
2819.277  0.51112  -65.13
2825.301  0.52927  -67.68
2831.325  0.54775  -68.91
2837.349  0.56248  -69.65
2843.373  0.57633  -72.29
2849.398  0.59347  -72.61
2855.422  0.60772  -73.68
2861.446  0.61977  -75.32
2867.470  0.63999  -76.77
2873.494  0.64383  -77.32
2879.518  0.65631  -78.45
2885.542  0.66385  -77.88
2891.566  0.67364  -79.66
2897.590  0.68766  -80.17
2903.614  0.69219  -80.40
2909.639  0.69085  -81.94
2915.663  0.69786  -82.88
2921.687  0.70328  -83.70
2927.711  0.71252  -85.09
2933.735  0.71447  -86.00
2939.759  0.71854  -86.87
2945.783  0.70917  -87.09
2951.807  0.70797  -88.95
2957.831  0.70370  -89.19
2963.855  0.71333  -90.89
2969.880  0.71021  -92.54
2975.904  0.71412  -94.17
2981.928  0.71661  -95.12
2987.952  0.71613  -97.33
2993.976  0.72441  -97.36
3000.000  0.72140  -99.28
3006.024  0.73038 -100.07
3012.048  0.71859 -101.18
3018.072  0.73505 -102.22
3024.096  0.73419 -102.63
3030.120  0.73111 -104.02
3036.145  0.73674 -104.10
3042.169  0.74026 -105.38
3048.193  0.72605 -105.46
3054.217  0.72864 -105.90
3060.241  0.73055 -105.90
3066.265  0.73488 -107.60
3072.289  0.72833 -108.86
3078.313  0.72748 -109.77
3084.337  0.71368 -110.47
3090.361  0.70791 -110.78
3096.386  0.70022 -113.52
3102.410  0.68826 -114.45
3108.434  0.69795 -115.10
3114.458  0.69173 -116.98
3120.482  0.68573 -117.87
3126.506  0.68261 -118.25
3132.530  0.68375 -120.43
3138.554  0.67940 -122.45
3144.578  0.67912 -123.20
3150.602  0.67427 -124.94
3156.627  0.67833 -127.49
3162.651  0.66622 -128.15
3168.675  0.66597 -130.39
3174.699  0.66875 -130.48
3180.723  0.66133 -132.23
3186.747  0.65761 -133.33
3192.771  0.65668 -133.58
3198.795  0.64683 -134.21
3204.819  0.64467 -135.18
3210.843  0.64215 -135.82
3216.867  0.63554 -135.64
3222.892  0.63140 -136.53
3228.916  0.61725 -137.60
3234.940  0.60633 -139.24
3240.964  0.59745 -139.10
3246.988  0.57379 -140.73
3253.012  0.56683 -141.59
3259.036  0.55021 -141.92
3265.060  0.53516 -142.51
3271.084  0.52259 -143.04
3277.108  0.51036 -145.88
3283.133  0.50121 -146.42
3289.157  0.48686 -146.11
3295.181  0.47962 -147.21
3301.205  0.46689 -148.67
3307.229  0.46433 -149.73
3313.253  0.45278 -149.57
3319.277  0.44621 -150.23
3325.301  0.44186 -149.81
3331.325  0.42760 -150.45
3337.349  0.43253 -149.85
3343.373  0.43149 -149.43
3349.398  0.42710 -148.91
3355.422  0.42550 -150.00
3361.446  0.42920 -149.83
3367.470  0.43289 -149.25
3373.494  0.43815 -146.53
3379.518  0.44799 -146.72
3385.542  0.44997 -146.81
3391.566  0.45598 -148.06
3397.590  0.46745 -146.92
3403.614  0.46449 -146.54
3409.639  0.47425 -147.26
3415.663  0.47762 -149.51
3421.687  0.48256 -148.05
3427.711  0.48208 -149.26
3433.735  0.48935 -151.64
3439.759  0.48987 -151.69
3445.783  0.50033 -153.44
3451.807  0.50035 -154.15
3457.831  0.51684 -157.26
3463.855  0.51591 -158.06
3469.880  0.52088 -159.95
3475.904  0.53170 -162.08
3481.928  0.53360 -162.83
3487.952  0.52846 -164.25
3493.976  0.52895 -166.21
3500.000  0.53614 -167.68
3506.024  0.53900 -169.62
3512.048  0.53879 -171.23
3518.072  0.54559 -171.17
3524.096  0.53935 -172.01
3530.120  0.53813 -173.86
3536.145  0.54322 -175.86
3542.169  0.55720 -176.38
3548.193  0.54947 -178.86
3554.217  0.54505  179.76
3560.241  0.54502  177.12
3566.265  0.54042  177.07
3572.289  0.53896  174.26
3578.313  0.52338  172.31
3584.337  0.52870  170.47
3590.361  0.51797  169.54
3596.386  0.51428  167.61
3602.410  0.50837  164.41
3608.434  0.50645  163.33
3614.458  0.50612  160.61
3620.482  0.49731  158.13
3626.506  0.49726  155.81
3632.530  0.49113  154.12
3638.554  0.49379  152.28
3644.578  0.49563  150.24
3650.602  0.48748  148.19
3656.627  0.48783  143.88
3662.651  0.47986  143.21
3668.675  0.46754  141.85
3674.699  0.47515  138.90
3680.723  0.45790  136.56
3686.747  0.45615  134.65
3692.771  0.44425  133.58
3698.795  0.43973  130.94
3704.819  0.44103  129.59
3710.843  0.43197  125.03
3716.867  0.42819  121.81
3722.892  0.42158  121.55
3728.916  0.41055  117.98
3734.940  0.41108  114.80
3740.964  0.39078  112.22
3746.988  0.39481  110.03
3753.012  0.38704  107.93
3759.036  0.39059  102.93
3765.060  0.36316   99.40
3771.084  0.35426   99.61
3777.108  0.36072   96.85
3783.133  0.35925   92.91
3789.157  0.35072   88.27
3795.181  0.34923   83.78
3801.205  0.33805   84.55
3807.229  0.33042   78.15
3813.253  0.32337   76.82
3819.277  0.32181   75.10
3825.301  0.31648   71.37
3831.325  0.30475   69.44
3837.349  0.29317   65.29
3843.373  0.28011   60.32
3849.398  0.28188   61.46
3855.422  0.27548   51.81
3861.446  0.24921   45.70
3867.470  0.25389   44.11
3873.494  0.24693   35.75
3879.518  0.24467   30.49
3885.542  0.25979   25.19
3891.566  0.22101   21.91
3897.590  0.24676   24.42
3903.614  0.24864    6.43
3909.639  0.25934    3.44
3915.663  0.25976   -6.59
3921.687  0.25145  -12.05
3927.711  0.25131  -17.00
3933.735  0.23426  -26.19
3939.759  0.24490  -25.76
3945.783  0.23348  -31.35
3951.807  0.24234  -35.48
3957.831  0.23153  -38.91
3963.855  0.22969  -41.56
3969.880  0.22765  -45.71
3975.904  0.22744  -51.31
3981.928  0.22101  -52.19
3987.952  0.22106  -56.99
3993.976  0.23972  -62.44
4000.000  0.24362  -66.00
