# MHz S MA R 50
!   freq        S11       
2500.000  0.78900  -96.07
2506.024  0.79020  -97.58
2512.048  0.78940  -97.03
2518.072  0.77096  -96.76
2524.096  0.77952  -97.34
2530.120  0.77180  -97.31
2536.145  0.76788  -97.85
2542.169  0.76509  -98.24
2548.193  0.75860  -98.37
2554.217  0.75050  -98.73
2560.241  0.74348  -99.04
2566.265  0.74167  -99.32
2572.289  0.73381 -100.29
2578.313  0.72992  -99.73
2584.337  0.72560 -101.02
2590.361  0.72936 -101.79
2596.386  0.71439 -102.20
2602.410  0.70061 -102.29
2608.434  0.69448 -104.02
2614.458  0.70037 -104.65
2620.482  0.69328 -105.41
2626.506  0.67498 -106.08
2632.530  0.68154 -106.48
2638.554  0.67653 -108.04
2644.578  0.67049 -107.56
2650.602  0.66550 -108.81
2656.627  0.66959 -108.88
2662.651  0.66146 -109.93
2668.675  0.65443 -110.67
2674.699  0.65623 -110.85
2680.723  0.64733 -111.14
2686.747  0.64522 -112.36
2692.771  0.64182 -113.25
2698.795  0.63438 -113.44
2704.819  0.63016 -113.83
2710.843  0.62468 -114.46
2716.867  0.61302 -114.76
2722.892  0.60469 -115.79
2728.916  0.59508 -115.96
2734.940  0.59288 -116.79
2740.964  0.58552 -115.85
2746.988  0.57899 -117.55
2753.012  0.56388 -118.52
2759.036  0.55330 -120.17
2765.060  0.54138 -119.89
2771.084  0.53729 -121.64
2777.108  0.52716 -122.84
2783.133  0.51930 -124.54
2789.157  0.51323 -124.94
2795.181  0.50361 -126.38
2801.205  0.50043 -127.06
2807.229  0.49460 -126.76
2813.253  0.48922 -127.75
2819.277  0.48481 -128.36
2825.301  0.48464 -129.51
2831.325  0.47471 -129.59
2837.349  0.46866 -130.30
2843.373  0.46183 -130.32
2849.398  0.45174 -130.47
2855.422  0.44825 -130.18
2861.446  0.44066 -129.83
2867.470  0.43529 -130.29
2873.494  0.42202 -130.16
2879.518  0.41335 -129.74
2885.542  0.40325 -128.17
2891.566  0.39515 -128.68
2897.590  0.38745 -127.93
2903.614  0.37639 -128.32
2909.639  0.36399 -128.52
2915.663  0.34527 -127.30
2921.687  0.33356 -127.29
2927.711  0.32198 -127.78
2933.735  0.31649 -126.45
2939.759  0.30335 -125.90
2945.783  0.29054 -124.98
2951.807  0.28075 -124.70
2957.831  0.27141 -124.62
2963.855  0.26501 -122.56
2969.880  0.25905 -123.31
2975.904  0.25316 -121.05
2981.928  0.25090 -120.45
2987.952  0.24710 -118.59
2993.976  0.24006 -114.35
3000.000  0.23818 -113.26
3006.024  0.24565 -111.67
3012.048  0.23998 -109.43
3018.072  0.24766 -106.38
3024.096  0.25065 -103.12
3030.120  0.25540 -101.35
3036.145  0.26080  -98.14
3042.169  0.26661  -96.02
3048.193  0.26985  -93.07
3054.217  0.27378  -91.83
3060.241  0.28091  -90.33
3066.265  0.29295  -88.32
3072.289  0.29720  -87.00
3078.313  0.30555  -87.01
3084.337  0.30691  -85.08
3090.361  0.31465  -84.51
3096.386  0.32064  -85.01
3102.410  0.32041  -85.78
3108.434  0.33570  -86.99
3114.458  0.34226  -87.37
3120.482  0.34486  -86.92
3126.506  0.35552  -87.00
3132.530  0.36361  -89.03
3138.554  0.37079  -89.45
3144.578  0.38015  -91.50
3150.602  0.38653  -93.13
3156.627  0.40132  -95.13
3162.651  0.40697  -96.89
3168.675  0.41833  -98.09
3174.699  0.42958  -98.77
3180.723  0.43732  -99.84
3186.747  0.44661 -101.25
3192.771  0.45526 -101.58
3198.795  0.45729 -101.63
3204.819  0.46852 -102.85
3210.843  0.47910 -103.35
3216.867  0.48921 -102.56
3222.892  0.49326 -104.49
3228.916  0.49565 -105.79
3234.940  0.49555 -105.91
3240.964  0.49862 -106.81
3246.988  0.49907 -106.74
3253.012  0.49887 -108.05
3259.036  0.49461 -109.09
3265.060  0.49294 -109.79
3271.084  0.49605 -110.30
3277.108  0.48527 -114.44
3283.133  0.48479 -115.78
3289.157  0.48668 -115.29
3295.181  0.49293 -117.85
3301.205  0.49022 -119.93
3307.229  0.48968 -120.47
3313.253  0.50045 -122.98
3319.277  0.48931 -122.25
3325.301  0.49140 -125.65
3331.325  0.49150 -127.11
3337.349  0.49580 -128.63
3343.373  0.49762 -130.05
3349.398  0.49618 -131.38
3355.422  0.49506 -132.77
3361.446  0.49576 -135.00
3367.470  0.49778 -134.60
3373.494  0.50610 -134.96
3379.518  0.49894 -136.04
3385.542  0.51043 -137.58
3391.566  0.50431 -140.44
3397.590  0.50591 -141.71
3403.614  0.49438 -140.20
3409.639  0.49783 -141.55
3415.663  0.49434 -144.01
3421.687  0.48739 -143.50
3427.711  0.48388 -144.24
3433.735  0.47773 -146.40
3439.759  0.47061 -146.56
3445.783  0.46861 -147.82
3451.807  0.46026 -148.78
3457.831  0.46525 -151.91
3463.855  0.46453 -153.31
3469.880  0.45541 -153.26
3475.904  0.46288 -156.10
3481.928  0.46550 -156.55
3487.952  0.45780 -157.70
3493.976  0.45605 -158.75
3500.000  0.45167 -159.31
3506.024  0.45187 -160.45
3512.048  0.44905 -161.12
3518.072  0.45104 -161.98
3524.096  0.44280 -162.01
3530.120  0.43893 -162.91
3536.145  0.44651 -163.59
3542.169  0.44829 -163.64
3548.193  0.45039 -165.34
3554.217  0.44245 -166.26
3560.241  0.44369 -166.84
3566.265  0.44128 -167.38
3572.289  0.44176 -168.58
3578.313  0.43807 -166.87
3584.337  0.43304 -170.05
3590.361  0.42483 -168.81
3596.386  0.42247 -170.99
3602.410  0.42468 -172.72
3608.434  0.42324 -172.78
3614.458  0.41488 -172.86
3620.482  0.42670 -176.58
3626.506  0.41394 -178.07
3632.530  0.42249 -178.10
3638.554  0.42584 -179.29
3644.578  0.42957  179.36
3650.602  0.42651  177.93
3656.627  0.42338  175.39
3662.651  0.42700  174.68
3668.675  0.42935  176.16
3674.699  0.43254  172.90
3680.723  0.42303  170.95
3686.747  0.43193  169.64
3692.771  0.42402  170.92
3698.795  0.42931  167.37
3704.819  0.44299  167.21
3710.843  0.43605  166.38
3716.867  0.43600  164.42
3722.892  0.42937  162.81
3728.916  0.43098  161.98
3734.940  0.43606  158.23
3740.964  0.42982  158.73
3746.988  0.42194  157.99
3753.012  0.42718  153.85
3759.036  0.43261  152.00
3765.060  0.41685  152.28
3771.084  0.41191  151.05
3777.108  0.41543  149.68
3783.133  0.43234  146.10
3789.157  0.42957  144.24
3795.181  0.42493  140.76
3801.205  0.41744  141.63
3807.229  0.41987  137.67
3813.253  0.41235  137.03
3819.277  0.42484  133.06
3825.301  0.42638  132.82
3831.325  0.42439  132.95
3837.349  0.41261  130.70
3843.373  0.39692  131.55
3849.398  0.41652  130.45
3855.422  0.40473  127.16
3861.446  0.39115  128.23
3867.470  0.40248  125.81
3873.494  0.38400  123.56
3879.518  0.38954  120.23
3885.542  0.39392  116.41
3891.566  0.39115  116.87
3897.590  0.41993  114.93
3903.614  0.40101  110.58
3909.639  0.41168  104.99
3915.663  0.37308  100.23
3921.687  0.38207   98.73
3927.711  0.37117   93.30
3933.735  0.34606   93.90
3939.759  0.33735   91.21
3945.783  0.32600   84.80
3951.807  0.30747   83.56
3957.831  0.30553   79.28
3963.855  0.29281   77.96
3969.880  0.29104   76.08
3975.904  0.29173   73.79
3981.928  0.27216   71.64
3987.952  0.27560   69.63
3993.976  0.26651   68.70
4000.000  0.24784   61.47
