# MHz S MA R 50
!   freq        S11       
1000.000  0.95128  -25.35
1013.655  0.94944  -26.03
1027.309  0.95111  -26.54
1040.964  0.95688  -27.39
1054.618  0.97746  -29.16
1068.273  0.98288  -30.53
1081.928  0.99035  -31.58
1095.582  0.98873  -32.61
1109.237  0.98879  -32.44
1122.892  0.98321  -31.81
1136.546  0.97576  -31.27
1150.201  0.96846  -30.82
1163.855  0.96233  -30.80
1177.510  0.95458  -30.22
1191.165  0.95275  -31.44
1204.819  0.95689  -32.20
1218.474  0.96169  -33.16
1232.129  0.97052  -34.48
1245.783  0.97291  -35.65
1259.438  0.97891  -36.34
1273.092  0.97858  -36.25
1286.747  0.97290  -36.59
1300.402  0.96696  -35.98
1314.056  0.95844  -35.90
1327.711  0.95139  -35.78
1341.365  0.94277  -35.70
1355.020  0.93852  -36.24
1368.675  0.93917  -36.76
1382.329  0.94341  -38.36
1395.984  0.94906  -39.31
1409.639  0.96130  -40.69
1423.293  0.96433  -41.15
1436.948  0.97055  -41.69
1450.602  0.96597  -42.13
1464.257  0.96035  -42.39
1477.912  0.95522  -41.69
1491.566  0.94722  -40.83
1505.221  0.93871  -41.31
1518.876  0.93395  -41.82
1532.530  0.93455  -42.17
1546.185  0.93873  -43.00
1559.839  0.94249  -43.61
1573.494  0.95490  -44.42
1587.149  0.95538  -44.98
1600.803  0.95938  -44.89
1614.458  0.95756  -45.52
1628.112  0.94997  -45.89
1641.767  0.94651  -45.84
1655.422  0.93656  -46.32
1669.076  0.93134  -46.81
1682.731  0.92737  -47.00
1696.386  0.92794  -47.56
1710.040  0.92657  -48.68
1723.695  0.93087  -49.58
1737.349  0.93492  -50.56
1751.004  0.94533  -51.56
1764.659  0.94018  -52.30
1778.313  0.94669  -52.39
1791.968  0.94022  -53.94
1805.622  0.93684  -53.68
1819.277  0.93100  -54.23
1832.932  0.91998  -53.96
1846.586  0.91369  -54.93
1860.241  0.91694  -55.77
1873.896  0.91468  -56.42
1887.550  0.91675  -57.43
1901.205  0.92465  -58.12
1914.859  0.92636  -58.90
1928.514  0.92654  -59.53
1942.169  0.92535  -60.10
1955.823  0.92334  -60.50
1969.478  0.91981  -61.04
1983.133  0.90750  -61.69
1996.787  0.89475  -62.99
2010.442  0.90350  -62.50
2024.096  0.90492  -64.08
2037.751  0.90070  -65.25
2051.406  0.90698  -65.92
2065.060  0.91602  -67.20
2078.715  0.91562  -67.45
2092.369  0.91097  -68.59
2106.024  0.91282  -69.31
2119.679  0.91141  -69.26
2133.333  0.91127  -69.88
2146.988  0.89073  -71.35
2160.643  0.88478  -72.34
2174.297  0.88836  -73.05
2187.952  0.88592  -73.96
2201.606  0.88494  -75.57
2215.261  0.88877  -76.46
2228.916  0.89253  -76.66
2242.570  0.89482  -77.27
2256.225  0.89022  -78.38
2269.880  0.89232  -78.96
2283.534  0.88368  -81.01
2297.189  0.87071  -82.41
2310.843  0.85164  -84.36
2324.498  0.84444  -85.05
2338.153  0.85667  -87.35
2351.807  0.84838  -88.80
2365.462  0.84732  -90.17
2379.116  0.85324  -91.97
2392.771  0.85764  -92.92
2406.426  0.84592  -93.34
2420.080  0.84369  -93.02
2433.735  0.83961  -93.97
2447.390  0.81669  -96.47
2461.044  0.79038  -98.77
2474.699  0.76483 -100.31
2488.353  0.74927 -102.68
2502.008  0.74053 -106.44
2515.663  0.72034 -108.73
2529.317  0.70957 -111.14
2542.972  0.70101 -114.43
2556.627  0.67310 -116.86
2570.281  0.64627 -118.14
2583.936  0.61728 -119.61
2597.590  0.57764 -122.32
2611.245  0.52016 -123.65
2624.900  0.46257 -125.71
2638.554  0.40213 -126.95
2652.209  0.34042 -126.48
2665.863  0.28749 -123.83
2679.518  0.24085 -117.23
2693.173  0.21711 -104.57
2706.827  0.22012  -89.26
2720.482  0.25021  -76.87
2734.137  0.29944  -68.39
2747.791  0.35263  -63.60
2761.446  0.40469  -62.35
2775.100  0.45057  -63.29
2788.755  0.48408  -65.32
2802.410  0.51258  -65.81
2816.064  0.54347  -69.08
2829.719  0.57247  -73.47
2843.373  0.59765  -77.45
2857.028  0.62833  -80.03
2870.683  0.64900  -83.69
2884.337  0.67592  -85.72
2897.992  0.69823  -86.73
2911.647  0.72813  -87.26
2925.301  0.73724  -89.62
2938.956  0.74254  -90.80
2952.610  0.72674  -92.55
2966.265  0.72042  -93.96
2979.920  0.71213  -96.65
2993.574  0.71007  -99.77
3007.229  0.70431 -103.47
3020.884  0.70552 -106.60
3034.538  0.71075 -109.60
3048.193  0.71205 -111.18
3061.847  0.73041 -112.93
3075.502  0.74542 -114.80
3089.157  0.73699 -118.16
3102.811  0.72637 -119.06
3116.466  0.71521 -120.21
3130.120  0.69159 -121.42
3143.775  0.67083 -124.48
3157.430  0.65133 -127.75
3171.084  0.63409 -130.49
3184.739  0.62051 -133.94
3198.394  0.61343 -136.23
3212.048  0.60107 -137.02
3225.703  0.59339 -139.75
3239.357  0.57943 -141.05
3253.012  0.55973 -142.76
3266.667  0.53401 -141.87
3280.321  0.50386 -140.79
3293.976  0.48077 -138.71
3307.631  0.45808 -138.69
3321.285  0.44608 -137.79
3334.940  0.43871 -138.42
3348.594  0.44663 -139.57
3362.249  0.46626 -140.97
3375.904  0.49000 -139.20
3389.558  0.52101 -140.05
3403.213  0.54757 -139.21
3416.867  0.55550 -139.00
3430.522  0.56040 -141.38
3444.177  0.55208 -143.80
3457.831  0.54799 -148.12
3471.486  0.54579 -152.12
3485.141  0.54063 -157.84
3498.795  0.54308 -162.58
3512.450  0.55352 -166.47
3526.104  0.56165 -170.02
3539.759  0.57416 -172.00
3553.414  0.58674 -173.62
3567.068  0.59247 -175.41
3580.723  0.58996 -178.32
3594.378  0.57800  178.89
3608.032  0.53421  175.04
3621.687  0.51317  167.59
3635.341  0.49699  161.16
3648.996  0.48579  155.61
3662.651  0.47324  149.79
3676.305  0.46024  143.88
3689.960  0.44168  139.75
3703.614  0.44876  134.07
3717.269  0.43640  129.39
3730.924  0.42212  123.59
3744.578  0.39322  120.03
3758.233  0.36177  110.41
3771.888  0.30415  107.10
3785.542  0.30324   97.91
3799.197  0.29848   85.33
3812.851  0.28373   74.88
3826.506  0.30427   64.99
3840.161  0.33713   58.93
3853.815  0.30792   57.63
3867.470  0.25821   48.50
3881.124  0.25060   46.49
3894.779  0.20710   30.20
3908.434  0.17323   11.92
3922.088  0.18413   -8.96
3935.743  0.21407  -23.45
3949.398  0.25614  -29.07
3963.052  0.28791  -36.98
3976.707  0.29745  -43.17
3990.361  0.30560  -48.26
4004.016  0.29207  -56.10
4017.671  0.27573  -63.62
4031.325  0.27067  -77.73
4044.980  0.29040  -88.45
4058.635  0.30674 -100.65
4072.289  0.35776 -108.34
4085.944  0.39237 -114.20
4099.598  0.41886 -117.05
4113.253  0.44340 -121.54
4126.908  0.44091 -122.32
4140.562  0.42104 -127.26
4154.217  0.42777 -132.37
4167.871  0.40955 -140.57
4181.526  0.38939 -148.46
4195.181  0.41175 -157.26
4208.835  0.43258 -162.96
4222.490  0.45664 -167.30
4236.145  0.48396 -170.57
4249.799  0.50962 -173.79
4263.454  0.49757 -176.90
4277.108  0.48898  179.11
4290.763  0.49951  178.15
4304.418  0.48708  171.77
4318.072  0.49520  166.85
4331.727  0.49005  159.10
4345.382  0.51572  156.00
4359.036  0.54030  151.52
4372.691  0.56828  149.29
4386.345  0.59243  149.11
4400.000  0.57359  145.18
