# MHz S MA R 50
!   freq        S11       
2300.000  0.87418  -83.07
2303.213  0.86638  -82.44
2306.426  0.87536  -83.14
2309.639  0.86001  -83.40
2312.851  0.85335  -84.14
2316.064  0.84706  -84.13
2319.277  0.85130  -84.01
2322.490  0.85259  -84.20
2325.703  0.84843  -84.85
2328.916  0.85286  -84.96
2332.129  0.86093  -84.98
2335.341  0.85439  -84.60
2338.554  0.85596  -85.06
2341.767  0.85276  -85.34
2344.980  0.85123  -86.19
2348.193  0.85258  -86.12
2351.406  0.84736  -86.19
2354.618  0.83997  -86.60
2357.831  0.83648  -86.52
2361.044  0.84297  -87.47
2364.257  0.84410  -87.84
2367.470  0.84328  -88.09
2370.683  0.85032  -87.84
2373.896  0.83477  -88.54
2377.108  0.84747  -89.13
2380.321  0.83670  -89.33
2383.534  0.83250  -89.42
2386.747  0.83813  -90.42
2389.960  0.83487  -90.07
2393.173  0.83544  -90.57
2396.386  0.81375  -91.64
2399.598  0.83489  -92.01
2402.811  0.82168  -91.36
2406.024  0.82230  -91.59
2409.237  0.82284  -92.19
2412.450  0.82812  -92.74
2415.663  0.82902  -92.59
2418.876  0.82279  -93.70
2422.088  0.82140  -93.94
2425.301  0.82383  -95.31
2428.514  0.81599  -94.34
2431.727  0.81574  -95.16
2434.940  0.81476  -96.11
2438.153  0.81782  -96.52
2441.365  0.81441  -96.04
2444.578  0.81527  -97.10
2447.791  0.80829  -96.89
2451.004  0.79703  -97.48
2454.217  0.80821  -98.68
2457.430  0.79591  -98.84
2460.643  0.79555  -98.97
2463.855  0.79726  -99.71
2467.068  0.78549  -99.30
2470.281  0.78328  -99.36
2473.494  0.79234 -100.18
2476.707  0.77748 -101.12
2479.920  0.78188 -100.84
2483.133  0.77284 -100.55
2486.345  0.75769 -102.42
2489.558  0.77074 -101.44
2492.771  0.77151 -102.17
2495.984  0.78303 -104.61
2499.197  0.75724 -103.26
2502.410  0.75696 -103.97
2505.622  0.74703 -104.13
2508.835  0.74022 -105.54
2512.048  0.73934 -106.38
2515.261  0.72562 -106.29
2518.474  0.72119 -106.35
2521.687  0.72329 -107.52
2524.900  0.71491 -107.97
2528.112  0.70577 -108.60
2531.325  0.70557 -109.73
2534.538  0.70183 -110.20
2537.751  0.69620 -110.91
2540.964  0.68838 -111.11
2544.177  0.67674 -112.21
2547.390  0.67036 -112.77
2550.602  0.67057 -113.05
2553.815  0.65797 -114.16
2557.028  0.65251 -116.04
2560.241  0.64176 -116.27
2563.454  0.64365 -116.36
2566.667  0.63247 -117.27
2569.880  0.62767 -118.51
2573.092  0.62068 -118.55
2576.305  0.61702 -118.54
2579.518  0.61007 -119.58
2582.731  0.59874 -121.16
2585.944  0.59239 -120.34
2589.157  0.58875 -121.89
2592.369  0.57676 -122.77
2595.582  0.56458 -123.80
2598.795  0.56213 -124.74
2602.008  0.54737 -124.31
2605.221  0.54194 -125.98
2608.434  0.53111 -125.83
2611.647  0.51731 -126.14
2614.859  0.49869 -126.97
2618.072  0.49268 -126.89
2621.285  0.47444 -127.52
2624.498  0.47267 -127.09
2627.711  0.45805 -128.56
2630.924  0.44834 -127.89
2634.137  0.43065 -127.58
2637.349  0.41455 -128.45
2640.562  0.40351 -127.40
2643.775  0.38719 -127.79
2646.988  0.37443 -128.15
2650.201  0.36109 -126.77
2653.414  0.34426 -127.08
2656.627  0.33113 -125.17
2659.839  0.31776 -125.07
2663.052  0.30536 -123.95
2666.265  0.28872 -122.53
2669.478  0.27382 -120.57
2672.691  0.26449 -120.22
2675.904  0.24633 -116.21
2679.116  0.23611 -113.54
2682.329  0.22465 -110.02
2685.542  0.21523 -107.92
2688.755  0.21232 -103.80
2691.968  0.20541 -100.19
2695.181  0.20009  -96.37
2698.394  0.19521  -91.51
2701.606  0.19793  -87.62
2704.819  0.19609  -83.17
2708.032  0.20210  -79.30
2711.245  0.20535  -75.86
2714.458  0.21223  -72.47
2717.671  0.21502  -69.18
2720.884  0.23072  -66.77
2724.096  0.23749  -63.75
2727.309  0.24608  -61.80
2730.522  0.26208  -60.39
2733.735  0.27106  -59.95
2736.948  0.28180  -58.02
2740.161  0.29433  -58.32
2743.373  0.30877  -57.38
2746.586  0.32000  -57.59
2749.799  0.33108  -56.92
2753.012  0.34125  -59.10
2756.225  0.35249  -58.58
2759.438  0.36934  -57.38
2762.651  0.38098  -58.34
2765.863  0.39286  -57.45
2769.076  0.40046  -59.35
2772.289  0.41517  -60.07
2775.502  0.42635  -60.74
2778.715  0.43743  -60.16
2781.928  0.45208  -61.71
2785.141  0.45478  -61.69
2788.353  0.47298  -63.00
2791.566  0.47838  -63.35
2794.779  0.49637  -63.47
2797.992  0.49665  -64.57
2801.205  0.50256  -65.73
2804.418  0.52335  -66.20
2807.631  0.53172  -66.21
2810.843  0.53956  -67.67
2814.056  0.55683  -67.98
2817.269  0.55992  -68.10
2820.482  0.56806  -69.52
2823.695  0.57488  -70.25
2826.908  0.59090  -70.16
2830.120  0.59387  -71.31
2833.333  0.59890  -71.67
2836.546  0.60977  -72.48
2839.759  0.61637  -72.52
2842.972  0.62156  -74.05
2846.185  0.62841  -73.05
2849.398  0.63265  -75.11
2852.610  0.63747  -73.96
2855.823  0.63727  -74.92
2859.036  0.64622  -76.58
2862.249  0.65057  -76.22
2865.462  0.65296  -77.23
2868.675  0.66093  -78.02
2871.888  0.65668  -78.17
2875.100  0.66280  -78.03
2878.313  0.66617  -79.33
2881.526  0.67793  -79.22
2884.739  0.67079  -79.86
2887.952  0.68026  -79.49
2891.165  0.68487  -80.72
2894.378  0.68020  -81.31
2897.590  0.68429  -82.00
2900.803  0.69263  -82.40
2904.016  0.69223  -82.55
2907.229  0.69825  -83.50
2910.442  0.69261  -83.93
2913.655  0.70097  -86.15
2916.867  0.70658  -86.27
2920.080  0.70961  -86.00
2923.293  0.71608  -87.22
2926.506  0.71618  -87.92
2929.719  0.71321  -88.67
2932.932  0.71681  -89.48
2936.145  0.71135  -89.12
2939.357  0.71511  -90.69
2942.570  0.70869  -91.43
2945.783  0.71582  -91.67
2948.996  0.71467  -91.60
2952.209  0.71366  -91.70
2955.422  0.71214  -93.40
2958.635  0.71581  -93.57
2961.847  0.71961  -93.58
2965.060  0.71643  -94.64
2968.273  0.72698  -94.55
2971.486  0.72707  -95.07
2974.699  0.72840  -95.18
2977.912  0.73052  -96.08
2981.124  0.73257  -96.80
2984.337  0.73574  -97.89
2987.550  0.73222  -97.67
2990.763  0.73495  -98.19
2993.976  0.73765  -99.45
2997.189  0.73668  -99.39
3000.402  0.73680  -98.91
3003.614  0.72995  -99.81
3006.827  0.72493 -100.26
3010.040  0.73522 -101.41
3013.253  0.72902 -101.72
3016.466  0.73067 -102.89
3019.679  0.73340 -102.55
3022.892  0.72966 -103.09
3026.104  0.72397 -103.17
3029.317  0.72331 -104.32
3032.530  0.72122 -104.80
3035.743  0.72620 -105.59
3038.956  0.71881 -105.08
3042.169  0.71578 -105.65
3045.382  0.71779 -106.32
3048.594  0.72298 -105.90
3051.807  0.71881 -107.75
3055.020  0.71598 -107.90
3058.233  0.71750 -107.87
3061.446  0.72038 -109.45
3064.659  0.72425 -110.00
3067.871  0.71563 -110.65
3071.084  0.71916 -112.09
3074.297  0.72080 -112.96
3077.510  0.71713 -113.48
3080.723  0.71840 -114.76
3083.936  0.71437 -114.03
3087.149  0.70541 -115.56
3090.361  0.71440 -116.30
3093.574  0.71146 -116.58
3096.787  0.70080 -117.50
3100.000  0.70147 -117.67
