# MHz S MA R 50
!   freq        S11       
2300.000  0.86069  -84.35
2303.213  0.86435  -83.66
2306.426  0.87839  -84.23
2309.639  0.85566  -84.88
2312.851  0.85704  -84.30
2316.064  0.85032  -84.49
2319.277  0.84868  -84.20
2322.490  0.85137  -85.19
2325.703  0.84829  -85.01
2328.916  0.85330  -85.41
2332.129  0.85808  -85.41
2335.341  0.85179  -85.52
2338.554  0.85485  -86.04
2341.767  0.85379  -86.48
2344.980  0.85215  -86.62
2348.193  0.84938  -86.11
2351.406  0.84666  -87.15
2354.618  0.84070  -88.20
2357.831  0.83330  -88.19
2361.044  0.83638  -88.42
2364.257  0.83875  -88.67
2367.470  0.84025  -89.85
2370.683  0.84185  -89.00
2373.896  0.83008  -89.62
2377.108  0.84097  -89.85
2380.321  0.83016  -90.43
2383.534  0.82836  -90.63
2386.747  0.83208  -91.66
2389.960  0.82864  -90.84
2393.173  0.82586  -91.29
2396.386  0.80514  -92.40
2399.598  0.82765  -92.61
2402.811  0.81276  -92.43
2406.024  0.81393  -93.07
2409.237  0.81296  -92.81
2412.450  0.81306  -94.05
2415.663  0.81900  -93.98
2418.876  0.81563  -94.66
2422.088  0.81050  -95.53
2425.301  0.81963  -96.35
2428.514  0.80719  -95.71
2431.727  0.81143  -96.60
2434.940  0.80414  -97.02
2438.153  0.80527  -97.51
2441.365  0.80186  -98.13
2444.578  0.79830  -97.61
2447.791  0.79853  -98.73
2451.004  0.79120  -97.44
2454.217  0.79707 -100.86
2457.430  0.78446 -100.33
2460.643  0.78070 -100.43
2463.855  0.78783 -100.44
2467.068  0.77242 -101.30
2470.281  0.77407 -101.41
2473.494  0.77857 -102.09
2476.707  0.76771 -101.84
2479.920  0.76278 -102.91
2483.133  0.75498 -101.63
2486.345  0.75138 -103.88
2489.558  0.75957 -103.13
2492.771  0.75526 -103.59
2495.984  0.77002 -105.97
2499.197  0.74190 -104.55
2502.410  0.74347 -105.61
2505.622  0.73459 -105.72
2508.835  0.72632 -107.10
2512.048  0.72304 -107.34
2515.261  0.71445 -108.83
2518.474  0.70864 -108.52
2521.687  0.70875 -109.13
2524.900  0.70355 -109.82
2528.112  0.69120 -110.44
2531.325  0.69379 -112.03
2534.538  0.68198 -111.74
2537.751  0.67897 -113.08
2540.964  0.67269 -113.21
2544.177  0.65994 -113.57
2547.390  0.65073 -114.21
2550.602  0.64997 -114.96
2553.815  0.64272 -115.67
2557.028  0.63603 -116.69
2560.241  0.62384 -117.94
2563.454  0.61849 -117.94
2566.667  0.61076 -118.67
2569.880  0.60494 -119.65
2573.092  0.59648 -120.16
2576.305  0.58907 -120.05
2579.518  0.58231 -121.73
2582.731  0.57103 -122.46
2585.944  0.56627 -121.46
2589.157  0.56120 -124.35
2592.369  0.54305 -125.01
2595.582  0.53496 -125.26
2598.795  0.53054 -125.29
2602.008  0.51717 -126.68
2605.221  0.50703 -126.90
2608.434  0.49703 -127.43
2611.647  0.48018 -127.03
2614.859  0.46663 -127.81
2618.072  0.45688 -127.82
2621.285  0.44326 -128.63
2624.498  0.43550 -128.60
2627.711  0.42230 -128.82
2630.924  0.41103 -128.66
2634.137  0.39409 -127.97
2637.349  0.38116 -127.32
2640.562  0.36461 -127.40
2643.775  0.35089 -126.67
2646.988  0.33463 -127.08
2650.201  0.32320 -125.14
2653.414  0.30620 -123.87
2656.627  0.29420 -123.24
2659.839  0.28099 -122.65
2663.052  0.27041 -120.99
2666.265  0.25251 -116.60
2669.478  0.24308 -115.42
2672.691  0.23422 -114.06
2675.904  0.22241 -110.57
2679.116  0.21584 -106.82
2682.329  0.20713 -101.73
2685.542  0.20336  -98.52
2688.755  0.20068  -93.67
2691.968  0.20124  -90.28
2695.181  0.19820  -85.57
2698.394  0.20195  -81.32
2701.606  0.20563  -77.64
2704.819  0.21074  -74.26
2708.032  0.21835  -71.16
2711.245  0.22416  -68.40
2714.458  0.23831  -66.47
2717.671  0.24446  -64.33
2720.884  0.25732  -62.74
2724.096  0.26994  -60.34
2727.309  0.27352  -59.86
2730.522  0.29064  -58.55
2733.735  0.30032  -58.11
2736.948  0.30915  -57.41
2740.161  0.32309  -58.50
2743.373  0.33861  -57.45
2746.586  0.34711  -57.60
2749.799  0.35687  -57.47
2753.012  0.37276  -59.13
2756.225  0.37855  -59.68
2759.438  0.39565  -59.63
2762.651  0.40661  -59.61
2765.863  0.41746  -59.42
2769.076  0.42211  -60.72
2772.289  0.44074  -62.02
2775.502  0.44734  -62.25
2778.715  0.45603  -62.73
2781.928  0.47227  -63.37
2785.141  0.47753  -63.48
2788.353  0.48423  -65.47
2791.566  0.49262  -65.62
2794.779  0.50985  -65.71
2797.992  0.51033  -66.43
2801.205  0.52650  -66.85
2804.418  0.53513  -68.15
2807.631  0.54244  -68.04
2810.843  0.55303  -69.54
2814.056  0.56912  -68.79
2817.269  0.57303  -70.58
2820.482  0.57749  -70.25
2823.695  0.58527  -72.00
2826.908  0.59989  -71.93
2830.120  0.60382  -73.69
2833.333  0.60753  -72.72
2836.546  0.61893  -73.73
2839.759  0.62531  -74.41
2842.972  0.62612  -75.58
2846.185  0.63172  -73.95
2849.398  0.63393  -76.17
2852.610  0.64016  -75.70
2855.823  0.64210  -76.65
2859.036  0.65140  -78.02
2862.249  0.65521  -78.08
2865.462  0.65743  -79.00
2868.675  0.66401  -79.27
2871.888  0.65552  -78.89
2875.100  0.66736  -79.49
2878.313  0.66623  -80.61
2881.526  0.67908  -80.44
2884.739  0.67302  -81.02
2887.952  0.67363  -80.99
2891.165  0.68007  -82.13
2894.378  0.67748  -82.93
2897.590  0.68233  -82.72
2900.803  0.69101  -83.66
2904.016  0.68797  -83.68
2907.229  0.69695  -85.41
2910.442  0.69050  -85.19
2913.655  0.70630  -87.40
2916.867  0.70216  -86.58
2920.080  0.70433  -87.98
2923.293  0.71310  -88.93
2926.506  0.71332  -88.93
2929.719  0.70903  -90.03
2932.932  0.70955  -89.97
2936.145  0.70330  -90.91
2939.357  0.71350  -91.45
2942.570  0.70705  -92.35
2945.783  0.71095  -93.20
2948.996  0.71218  -92.61
2952.209  0.70927  -93.72
2955.422  0.71171  -93.93
2958.635  0.71199  -94.86
2961.847  0.71334  -94.78
2965.060  0.70924  -95.63
2968.273  0.72058  -95.92
2971.486  0.72064  -96.26
2974.699  0.72124  -97.02
2977.912  0.72580  -97.86
2981.124  0.72680  -97.73
2984.337  0.72926  -99.17
2987.550  0.72573  -98.52
2990.763  0.73076 -100.13
2993.976  0.73327 -100.32
2997.189  0.73058 -100.15
3000.402  0.73285 -100.76
3003.614  0.72607 -101.42
3006.827  0.71904 -101.35
3010.040  0.72884 -102.37
3013.253  0.72722 -102.82
3016.466  0.72074 -103.75
3019.679  0.72395 -103.55
3022.892  0.72028 -104.20
3026.104  0.71935 -105.24
3029.317  0.71782 -105.37
3032.530  0.71582 -106.14
3035.743  0.72151 -106.20
3038.956  0.71615 -106.36
3042.169  0.70626 -106.77
3045.382  0.71321 -107.81
3048.594  0.71284 -107.54
3051.807  0.71648 -108.69
3055.020  0.70968 -108.18
3058.233  0.70643 -108.66
3061.446  0.71037 -110.50
3064.659  0.71809 -111.09
3067.871  0.71114 -111.59
3071.084  0.71208 -112.93
3074.297  0.71228 -114.20
3077.510  0.70913 -114.05
3080.723  0.71138 -115.84
3083.936  0.70525 -115.30
3087.149  0.70323 -115.70
3090.361  0.70934 -117.41
3093.574  0.70138 -118.09
3096.787  0.69286 -118.48
3100.000  0.69049 -119.36
