# MHz S MA R 50
!   freq        S11       
2300.000  0.87794  -85.85
2303.213  0.86821  -86.13
2306.426  0.85319  -85.94
2309.639  0.87088  -87.15
2312.851  0.86317  -86.55
2316.064  0.85166  -86.94
2319.277  0.85317  -87.39
2322.490  0.84409  -87.57
2325.703  0.84886  -88.10
2328.916  0.84764  -88.46
2332.129  0.85525  -87.88
2335.341  0.85541  -87.91
2338.554  0.85636  -88.84
2341.767  0.85568  -89.93
2344.980  0.85696  -89.35
2348.193  0.85152  -90.28
2351.406  0.84670  -90.55
2354.618  0.85195  -91.08
2357.831  0.84406  -91.42
2361.044  0.84009  -91.73
2364.257  0.83482  -91.42
2367.470  0.84455  -92.29
2370.683  0.85171  -93.01
2373.896  0.84524  -93.36
2377.108  0.84278  -94.24
2380.321  0.82689  -93.91
2383.534  0.83338  -94.26
2386.747  0.84382  -95.08
2389.960  0.83013  -94.88
2393.173  0.83351  -94.93
2396.386  0.83217  -95.63
2399.598  0.83791  -96.04
2402.811  0.82801  -95.69
2406.024  0.83468  -96.92
2409.237  0.82644  -96.11
2412.450  0.82674  -97.33
2415.663  0.82717  -98.05
2418.876  0.82132  -97.71
2422.088  0.82136  -97.67
2425.301  0.82204  -97.76
2428.514  0.82145  -98.60
2431.727  0.81351  -98.98
2434.940  0.81469  -98.45
2438.153  0.81316  -99.42
2441.365  0.81459 -100.28
2444.578  0.79732 -101.17
2447.791  0.80675 -100.21
2451.004  0.79631 -101.28
2454.217  0.80351 -101.02
2457.430  0.80170 -102.09
2460.643  0.78686 -101.94
2463.855  0.79417 -102.83
2467.068  0.78398 -102.97
2470.281  0.78361 -103.00
2473.494  0.78561 -102.93
2476.707  0.77567 -103.04
2479.920  0.77583 -102.37
2483.133  0.75687 -103.98
2486.345  0.77506 -104.72
2489.558  0.75497 -105.48
2492.771  0.75502 -105.47
2495.984  0.77759 -107.07
2499.197  0.75064 -106.27
2502.410  0.73920 -106.97
2505.622  0.73929 -107.29
2508.835  0.73323 -108.54
2512.048  0.72979 -109.49
2515.261  0.72047 -109.75
2518.474  0.71616 -110.97
2521.687  0.71192 -111.02
2524.900  0.70948 -112.34
2528.112  0.70028 -112.28
2531.325  0.68969 -112.84
2534.538  0.69171 -113.73
2537.751  0.68361 -114.75
2540.964  0.67435 -115.07
2544.177  0.67131 -115.46
2547.390  0.66730 -116.53
2550.602  0.66468 -116.99
2553.815  0.64874 -118.07
2557.028  0.64745 -119.10
2560.241  0.63505 -120.08
2563.454  0.63358 -119.64
2566.667  0.62662 -119.59
2569.880  0.61376 -121.38
2573.092  0.60863 -122.57
2576.305  0.60619 -122.30
2579.518  0.59837 -122.92
2582.731  0.58896 -122.77
2585.944  0.58111 -123.97
2589.157  0.57609 -125.45
2592.369  0.56759 -125.06
2595.582  0.55766 -126.08
2598.795  0.54267 -126.32
2602.008  0.54485 -127.07
2605.221  0.52820 -127.30
2608.434  0.51552 -127.52
2611.647  0.50988 -128.80
2614.859  0.49370 -129.08
2618.072  0.47918 -128.16
2621.285  0.47521 -128.50
2624.498  0.45428 -127.85
2627.711  0.45040 -127.76
2630.924  0.43604 -129.27
2634.137  0.42164 -127.96
2637.349  0.40949 -128.06
2640.562  0.39862 -126.91
2643.775  0.38208 -127.75
2646.988  0.37067 -126.02
2650.201  0.35582 -125.33
2653.414  0.34310 -124.93
2656.627  0.32709 -123.23
2659.839  0.31729 -122.91
2663.052  0.30485 -121.13
2666.265  0.29135 -120.02
2669.478  0.27629 -116.30
2672.691  0.26758 -114.07
2675.904  0.25918 -113.78
2679.116  0.25188 -110.84
2682.329  0.24206 -107.09
2685.542  0.23726 -104.52
2688.755  0.23431 -101.43
2691.968  0.22854  -97.09
2695.181  0.22675  -94.35
2698.394  0.22777  -90.82
2701.606  0.23563  -88.70
2704.819  0.23631  -84.40
2708.032  0.24654  -81.84
2711.245  0.24838  -78.90
2714.458  0.25202  -77.34
2717.671  0.26319  -74.03
2720.884  0.27330  -72.08
2724.096  0.28340  -71.20
2727.309  0.29112  -69.32
2730.522  0.30709  -68.22
2733.735  0.31544  -67.40
2736.948  0.32675  -66.60
2740.161  0.33880  -66.61
2743.373  0.35131  -65.82
2746.586  0.36673  -66.34
2749.799  0.37636  -66.06
2753.012  0.38797  -64.79
2756.225  0.40184  -66.06
2759.438  0.41237  -66.68
2762.651  0.42326  -67.17
2765.863  0.43390  -67.07
2769.076  0.45079  -67.75
2772.289  0.45874  -68.12
2775.502  0.46953  -69.05
2778.715  0.48161  -68.53
2781.928  0.48825  -69.21
2785.141  0.49714  -69.25
2788.353  0.50440  -70.31
2791.566  0.51742  -70.63
2794.779  0.53150  -70.56
2797.992  0.53476  -71.97
2801.205  0.54094  -72.53
2804.418  0.55537  -72.61
2807.631  0.56221  -73.34
2810.843  0.57475  -74.12
2814.056  0.58275  -74.00
2817.269  0.58424  -74.54
2820.482  0.59957  -74.94
2823.695  0.59899  -75.96
2826.908  0.61160  -76.53
2830.120  0.61664  -76.66
2833.333  0.62388  -76.53
2836.546  0.62737  -77.57
2839.759  0.63317  -78.38
2842.972  0.63695  -78.96
2846.185  0.64513  -80.27
2849.398  0.64185  -80.04
2852.610  0.64664  -80.57
2855.823  0.64794  -81.22
2859.036  0.65659  -82.73
2862.249  0.66209  -82.93
2865.462  0.66574  -82.86
2868.675  0.66537  -82.89
2871.888  0.66684  -84.50
2875.100  0.67581  -85.33
2878.313  0.67356  -85.93
2881.526  0.67496  -86.03
2884.739  0.67451  -86.45
2887.952  0.68431  -87.31
2891.165  0.68543  -87.82
2894.378  0.68785  -88.29
2897.590  0.68967  -88.88
2900.803  0.69795  -88.85
2904.016  0.69444  -88.72
2907.229  0.70119  -90.67
2910.442  0.70890  -91.84
2913.655  0.71159  -93.44
2916.867  0.71382  -91.81
2920.080  0.70528  -94.21
2923.293  0.71546  -93.47
2926.506  0.71950  -94.43
2929.719  0.72080  -96.18
2932.932  0.73191  -95.98
2936.145  0.70591  -96.42
2939.357  0.72077  -96.44
2942.570  0.71068  -96.79
2945.783  0.71795  -97.75
2948.996  0.70426  -98.80
2952.209  0.71870  -98.55
2955.422  0.72712  -98.68
2958.635  0.71630  -98.38
2961.847  0.71609  -99.64
2965.060  0.71454 -100.32
2968.273  0.72201 -101.31
2971.486  0.73303 -101.60
2974.699  0.73085 -100.54
2977.912  0.73324 -102.14
2981.124  0.73817 -103.01
2984.337  0.73349 -103.87
2987.550  0.72953 -103.25
2990.763  0.73347 -103.44
2993.976  0.73536 -104.96
2997.189  0.73257 -104.50
3000.402  0.73522 -104.68
3003.614  0.73370 -106.26
3006.827  0.73013 -106.43
3010.040  0.72167 -105.70
3013.253  0.73382 -106.61
3016.466  0.72774 -107.07
3019.679  0.71435 -107.68
3022.892  0.73362 -108.48
3026.104  0.72249 -108.99
3029.317  0.72141 -110.45
3032.530  0.71629 -110.77
3035.743  0.71233 -110.64
3038.956  0.71689 -111.32
3042.169  0.72227 -112.18
3045.382  0.71717 -111.85
3048.594  0.71628 -112.42
3051.807  0.72213 -112.22
3055.020  0.71822 -112.59
3058.233  0.72438 -112.91
3061.446  0.71917 -113.90
3064.659  0.71721 -114.74
3067.871  0.71906 -115.11
3071.084  0.72104 -116.40
3074.297  0.71476 -116.69
3077.510  0.72051 -117.11
3080.723  0.70619 -118.29
3083.936  0.71163 -119.36
3087.149  0.70538 -119.39
3090.361  0.71399 -120.31
3093.574  0.71442 -121.12
3096.787  0.71362 -121.16
3100.000  0.69755 -121.96
