# MHz S MA R 50
!   freq        S11       
1000.000  0.97418  -31.91
1013.655  0.96537  -27.48
1027.309  0.95527  -26.38
1040.964  0.94057  -28.62
1054.618  1.00495  -25.15
1068.273  0.98347  -25.35
1081.928  0.97428  -25.97
1095.582  0.96257  -26.77
1109.237  0.96063  -27.44
1122.892  0.95842  -28.26
1136.546  0.95643  -28.72
1150.201  0.95459  -29.31
1163.855  0.95066  -29.90
1177.510  0.94780  -30.21
1191.165  0.94598  -30.57
1204.819  0.94950  -30.35
1218.474  0.95370  -30.43
1232.129  0.95687  -30.76
1245.783  0.95494  -30.73
1259.438  0.95699  -31.11
1273.092  0.95228  -31.77
1286.747  0.94907  -32.53
1300.402  0.94722  -33.45
1314.056  0.94393  -34.65
1327.711  0.94527  -35.44
1341.365  0.94400  -36.12
1355.020  0.93932  -36.38
1368.675  0.94029  -36.38
1382.329  0.94378  -36.32
1395.984  0.94495  -35.98
1409.639  0.94709  -35.88
1423.293  0.94748  -36.17
1436.948  0.94664  -37.03
1450.602  0.94615  -37.73
1464.257  0.94269  -38.67
1477.912  0.94081  -39.76
1491.566  0.94228  -40.67
1505.221  0.93362  -41.21
1518.876  0.93106  -41.61
1532.530  0.93079  -41.43
1546.185  0.92818  -41.85
1559.839  0.93340  -41.30
1573.494  0.93715  -41.45
1587.149  0.93775  -41.69
1600.803  0.93944  -41.90
1614.458  0.93577  -43.29
1628.112  0.93690  -43.59
1641.767  0.93206  -45.30
1655.422  0.93281  -46.52
1669.076  0.93289  -47.05
1682.731  0.92943  -47.10
1696.386  0.93819  -45.63
1710.040  0.92393  -47.46
1723.695  0.92033  -47.75
1737.349  0.92161  -47.93
1751.004  0.92451  -47.61
1764.659  0.93953  -47.52
1778.313  0.93196  -48.35
1791.968  0.92477  -49.68
1805.622  0.92612  -51.66
1819.277  0.91695  -53.05
1832.932  0.92057  -54.00
1846.586  0.92031  -55.24
1860.241  0.92490  -56.62
1873.896  0.93248  -56.66
1887.550  0.93021  -56.78
1901.205  0.93542  -56.30
1914.859  0.92845  -56.16
1928.514  0.92401  -56.01
1942.169  0.91870  -56.27
1955.823  0.91728  -57.32
1969.478  0.91518  -58.93
1983.133  0.90590  -61.19
1996.787  0.89995  -62.84
2010.442  0.90655  -64.85
2024.096  0.91246  -65.40
2037.751  0.91084  -65.58
2051.406  0.91354  -66.14
2065.060  0.92232  -65.35
2078.715  0.91432  -65.19
2092.369  0.91063  -64.54
2106.024  0.90737  -65.07
2119.679  0.90687  -65.69
2133.333  0.89598  -67.58
2146.988  0.88596  -70.28
2160.643  0.87777  -72.02
2174.297  0.88465  -74.15
2187.952  0.89073  -75.56
2201.606  0.89724  -76.83
2215.261  0.89978  -76.71
2228.916  0.89942  -76.97
2242.570  0.89638  -76.58
2256.225  0.88812  -75.54
2269.880  0.88690  -76.18
2283.534  0.89018  -78.12
2297.189  0.86592  -79.85
2310.843  0.84341  -82.60
2324.498  0.83942  -85.31
2338.153  0.85414  -87.62
2351.807  0.85735  -91.23
2365.462  0.84632  -90.73
2379.116  0.85253  -91.61
2392.771  0.84244  -91.75
2406.426  0.83629  -91.03
2420.080  0.82783  -90.67
2433.735  0.83487  -89.28
2447.390  0.80400  -94.44
2461.044  0.76979  -97.12
2474.699  0.74111 -100.30
2488.353  0.73174 -103.87
2502.008  0.72517 -106.89
2515.663  0.71502 -110.46
2529.317  0.70099 -112.81
2542.972  0.68114 -114.45
2556.627  0.65888 -114.59
2570.281  0.62359 -114.64
2583.936  0.58420 -115.05
2597.590  0.52741 -116.29
2611.245  0.46484 -118.90
2624.900  0.39916 -120.18
2638.554  0.33758 -121.54
2652.209  0.29202 -122.07
2665.863  0.25211 -118.71
2679.518  0.22744 -109.62
2693.173  0.22922  -99.60
2706.827  0.26425  -87.67
2720.482  0.31713  -78.35
2734.137  0.37537  -72.01
2747.791  0.43479  -68.07
2761.446  0.49943  -61.40
2775.100  0.52893  -61.09
2788.755  0.55369  -62.38
2802.410  0.55653  -63.15
2816.064  0.57744  -67.55
2829.719  0.59593  -73.13
2843.373  0.62078  -77.48
2857.028  0.66417  -81.71
2870.683  0.68676  -86.84
2884.337  0.72084  -90.31
2897.992  0.75567  -91.16
2911.647  0.80991  -89.10
2925.301  0.81256  -90.73
2938.956  0.78733  -94.02
2952.610  0.76711  -92.48
2966.265  0.73781  -92.97
2979.920  0.73063  -96.46
2993.574  0.72241 -100.27
3007.229  0.72179 -105.18
3020.884  0.72862 -110.20
3034.538  0.74775 -114.34
3048.193  0.76118 -116.38
3061.847  0.78129 -118.51
3075.502  0.79227 -120.16
3089.157  0.79399 -121.30
3102.811  0.77635 -121.24
3116.466  0.74465 -121.47
3130.120  0.72274 -122.15
3143.775  0.69320 -124.81
3157.430  0.67379 -128.79
3171.084  0.66412 -133.10
3184.739  0.66621 -136.95
3198.394  0.66220 -141.89
3212.048  0.65445 -143.68
3225.703  0.66472 -145.12
3239.357  0.64790 -145.92
3253.012  0.63090 -146.31
3266.667  0.61546 -144.22
3280.321  0.57023 -143.15
3293.976  0.52360 -145.63
3307.631  0.48748 -146.53
3321.285  0.46548 -148.18
3334.940  0.45809 -149.98
3348.594  0.45798 -152.13
3362.249  0.47643 -152.16
3375.904  0.49897 -151.38
3389.558  0.53305 -149.23
3403.213  0.55743 -148.77
3416.867  0.56315 -150.04
3430.522  0.58019 -147.25
3444.177  0.55232 -149.19
3457.831  0.52927 -153.26
3471.486  0.50885 -158.30
3485.141  0.51214 -161.63
3498.795  0.51547 -168.14
3512.450  0.52475 -172.15
3526.104  0.54667 -175.31
3539.759  0.56796 -177.81
3553.414  0.56598 -179.04
3567.068  0.55621  178.00
3580.723  0.54172  175.40
3594.378  0.52775  171.74
3608.032  0.48974  168.48
3621.687  0.47498  164.20
3635.341  0.46690  155.70
3648.996  0.45740  148.69
3662.651  0.45808  142.42
3676.305  0.46299  140.03
3689.960  0.46381  135.92
3703.614  0.46501  132.84
3717.269  0.44016  130.58
3730.924  0.41477  125.87
3744.578  0.37070  121.93
3758.233  0.33377  113.29
3771.888  0.30417  101.20
3785.542  0.27459   87.03
3799.197  0.28812   79.07
3812.851  0.32480   72.46
3826.506  0.31467   65.52
3840.161  0.31997   61.40
3853.815  0.28951   59.80
3867.470  0.25800   54.03
3881.124  0.20702   43.30
3894.779  0.18684   24.41
3908.434  0.18463    5.04
3922.088  0.21307  -17.77
3935.743  0.24312  -26.95
3949.398  0.30330  -38.26
3963.052  0.31964  -37.79
3976.707  0.31199  -41.26
3990.361  0.28998  -45.51
4004.016  0.26649  -53.65
4017.671  0.23993  -71.53
4031.325  0.24543  -86.88
4044.980  0.29650 -101.86
4058.635  0.35631 -110.78
4072.289  0.40923 -112.83
4085.944  0.48114 -111.33
4099.598  0.50658 -106.43
4113.253  0.49743 -106.88
4126.908  0.48270 -108.03
4140.562  0.44357 -118.43
4154.217  0.39891 -129.40
4167.871  0.38176 -143.02
4181.526  0.39677 -155.00
4195.181  0.42423 -163.59
4208.835  0.45627 -171.76
4222.490  0.52843 -172.79
4236.145  0.59603 -172.58
4249.799  0.70849 -175.03
4263.454  0.77066 -169.70
4277.108  0.84934 -169.65
4290.763  0.78253 -170.24
4304.418  0.73421 -177.23
4318.072  0.64006  172.34
4331.727  0.58140  162.81
4345.382  0.55418  155.65
4359.036  0.55566  147.53
4372.691  0.58398  143.97
4386.345  0.62954  143.04
4400.000  0.70364  142.61
