# MHz S MA R 50
!   freq        S11       
2300.000  0.87605  -86.22
2303.213  0.86479  -85.32
2306.426  0.84796  -87.18
2309.639  0.86587  -87.08
2312.851  0.86446  -87.09
2316.064  0.85014  -87.30
2319.277  0.86190  -87.50
2322.490  0.84591  -88.20
2325.703  0.84549  -88.25
2328.916  0.84718  -87.97
2332.129  0.85673  -88.55
2335.341  0.85400  -87.57
2338.554  0.85531  -89.20
2341.767  0.85872  -89.24
2344.980  0.85630  -89.67
2348.193  0.85103  -90.41
2351.406  0.84915  -90.37
2354.618  0.84153  -91.87
2357.831  0.85401  -91.38
2361.044  0.83850  -91.93
2364.257  0.83515  -92.07
2367.470  0.84138  -92.31
2370.683  0.85209  -92.27
2373.896  0.84482  -93.65
2377.108  0.84402  -94.16
2380.321  0.82586  -93.43
2383.534  0.83915  -94.51
2386.747  0.84552  -94.93
2389.960  0.83638  -94.14
2393.173  0.83504  -95.47
2396.386  0.83062  -95.44
2399.598  0.83942  -96.60
2402.811  0.82768  -95.63
2406.024  0.83101  -95.92
2409.237  0.83013  -96.19
2412.450  0.82844  -97.28
2415.663  0.82019  -97.74
2418.876  0.82760  -97.26
2422.088  0.82225  -98.20
2425.301  0.82417  -98.60
2428.514  0.82276  -98.18
2431.727  0.81618  -99.00
2434.940  0.81762  -98.27
2438.153  0.81548  -99.38
2441.365  0.81775  -99.92
2444.578  0.80002 -100.41
2447.791  0.80972 -100.73
2451.004  0.79976 -101.23
2454.217  0.80763 -100.80
2457.430  0.80763 -102.49
2460.643  0.79119 -102.00
2463.855  0.79328 -102.14
2467.068  0.79051 -102.97
2470.281  0.78906 -103.13
2473.494  0.78884 -102.67
2476.707  0.78117 -102.95
2479.920  0.77838 -103.16
2483.133  0.76494 -104.15
2486.345  0.77128 -104.03
2489.558  0.76127 -105.19
2492.771  0.76719 -105.02
2495.984  0.78519 -107.43
2499.197  0.75707 -106.80
2502.410  0.74672 -106.88
2505.622  0.74815 -106.69
2508.835  0.74437 -108.20
2512.048  0.73716 -109.13
2515.261  0.72859 -110.06
2518.474  0.72724 -110.59
2521.687  0.72112 -110.59
2524.900  0.71672 -111.42
2528.112  0.70810 -112.18
2531.325  0.70172 -112.91
2534.538  0.70258 -113.58
2537.751  0.69358 -114.27
2540.964  0.68463 -115.04
2544.177  0.67832 -114.97
2547.390  0.67961 -115.66
2550.602  0.67089 -116.38
2553.815  0.65932 -117.39
2557.028  0.65944 -118.07
2560.241  0.65518 -118.78
2563.454  0.64870 -118.97
2566.667  0.64152 -119.66
2569.880  0.63265 -120.52
2573.092  0.62718 -122.27
2576.305  0.62417 -121.72
2579.518  0.61609 -122.21
2582.731  0.60206 -123.18
2585.944  0.60721 -123.95
2589.157  0.59573 -124.41
2592.369  0.58851 -125.07
2595.582  0.58095 -126.17
2598.795  0.56432 -125.84
2602.008  0.56675 -126.81
2605.221  0.55545 -128.09
2608.434  0.54313 -128.18
2611.647  0.53743 -128.20
2614.859  0.51366 -129.11
2618.072  0.50822 -128.29
2621.285  0.49823 -129.37
2624.498  0.48285 -128.51
2627.711  0.47865 -128.95
2630.924  0.46279 -129.57
2634.137  0.45082 -129.71
2637.349  0.44209 -129.69
2640.562  0.42792 -129.62
2643.775  0.41336 -129.73
2646.988  0.40038 -127.87
2650.201  0.38533 -128.52
2653.414  0.37300 -128.08
2656.627  0.35855 -127.56
2659.839  0.34558 -126.59
2663.052  0.33319 -126.59
2666.265  0.31707 -124.89
2669.478  0.30490 -124.40
2672.691  0.29276 -122.05
2675.904  0.27891 -121.39
2679.116  0.26741 -119.12
2682.329  0.25913 -117.37
2685.542  0.24996 -115.99
2688.755  0.23613 -111.92
2691.968  0.23489 -109.80
2695.181  0.22350 -106.36
2698.394  0.21834 -103.01
2701.606  0.21890  -99.90
2704.819  0.21320  -95.82
2708.032  0.22175  -92.43
2711.245  0.21920  -88.63
2714.458  0.22262  -86.23
2717.671  0.22980  -82.68
2720.884  0.23196  -79.64
2724.096  0.24100  -77.41
2727.309  0.25155  -74.23
2730.522  0.26081  -72.59
2733.735  0.26975  -71.58
2736.948  0.27789  -70.07
2740.161  0.28939  -69.52
2743.373  0.30085  -68.20
2746.586  0.31624  -66.88
2749.799  0.32599  -66.40
2753.012  0.33340  -66.23
2756.225  0.34987  -66.63
2759.438  0.36200  -66.48
2762.651  0.37440  -66.06
2765.863  0.38341  -66.92
2769.076  0.40034  -66.27
2772.289  0.41033  -66.69
2775.502  0.42302  -66.48
2778.715  0.43090  -67.56
2781.928  0.44640  -67.02
2785.141  0.45528  -68.05
2788.353  0.46489  -69.06
2791.566  0.47314  -69.24
2794.779  0.48731  -69.61
2797.992  0.49334  -69.89
2801.205  0.50502  -69.79
2804.418  0.51463  -70.76
2807.631  0.51903  -70.47
2810.843  0.53383  -71.08
2814.056  0.54575  -71.73
2817.269  0.55296  -71.54
2820.482  0.56808  -71.83
2823.695  0.56491  -72.19
2826.908  0.57840  -73.23
2830.120  0.58159  -74.63
2833.333  0.59178  -75.00
2836.546  0.60172  -75.72
2839.759  0.60721  -76.97
2842.972  0.60713  -76.26
2846.185  0.61588  -77.42
2849.398  0.61981  -77.83
2852.610  0.62636  -78.65
2855.823  0.62223  -78.51
2859.036  0.63287  -80.06
2862.249  0.63767  -80.41
2865.462  0.64326  -80.69
2868.675  0.64335  -81.28
2871.888  0.65320  -82.53
2875.100  0.64753  -82.95
2878.313  0.65508  -83.54
2881.526  0.65500  -83.55
2884.739  0.65723  -84.07
2887.952  0.66888  -84.55
2891.165  0.66547  -85.27
2894.378  0.67094  -86.18
2897.590  0.67227  -86.85
2900.803  0.68218  -86.19
2904.016  0.68022  -86.50
2907.229  0.68824  -87.85
2910.442  0.69406  -88.82
2913.655  0.69252  -90.24
2916.867  0.69908  -89.62
2920.080  0.69371  -90.96
2923.293  0.70194  -91.23
2926.506  0.71162  -92.68
2929.719  0.71311  -93.77
2932.932  0.72218  -94.25
2936.145  0.70373  -94.09
2939.357  0.71392  -94.14
2942.570  0.70169  -94.60
2945.783  0.71463  -95.40
2948.996  0.70434  -96.16
2952.209  0.70717  -97.33
2955.422  0.71793  -96.42
2958.635  0.70735  -97.45
2961.847  0.71422  -97.22
2965.060  0.71241  -98.20
2968.273  0.71802  -99.36
2971.486  0.72560  -98.94
2974.699  0.73462  -99.82
2977.912  0.73046 -100.51
2981.124  0.73454 -100.63
2984.337  0.73103 -101.10
2987.550  0.72903 -100.94
2990.763  0.73154 -101.64
2993.976  0.73610 -102.87
2997.189  0.73181 -103.24
3000.402  0.73478 -103.06
3003.614  0.72948 -104.23
3006.827  0.73113 -104.39
3010.040  0.72304 -104.00
3013.253  0.73541 -105.27
3016.466  0.72993 -105.52
3019.679  0.72297 -106.74
3022.892  0.73775 -106.72
3026.104  0.72482 -107.39
3029.317  0.72392 -108.95
3032.530  0.71644 -108.75
3035.743  0.71354 -110.06
3038.956  0.72136 -110.53
3042.169  0.72409 -111.86
3045.382  0.72373 -110.21
3048.594  0.72162 -111.12
3051.807  0.72086 -111.46
3055.020  0.72364 -111.79
3058.233  0.72911 -112.19
3061.446  0.72170 -113.14
3064.659  0.72373 -113.91
3067.871  0.72868 -114.50
3071.084  0.72360 -115.78
3074.297  0.72589 -116.27
3077.510  0.71914 -116.23
3080.723  0.71394 -117.06
3083.936  0.71454 -118.42
3087.149  0.71290 -118.20
3090.361  0.71838 -118.82
3093.574  0.71790 -120.69
3096.787  0.71052 -120.66
3100.000  0.70509 -121.37
