# MHz S MA R 50
!   freq        S11       
1000.000  0.95154  -25.15
1013.655  0.94909  -25.99
1027.309  0.95060  -26.37
1040.964  0.95751  -27.27
1054.618  0.97664  -29.10
1068.273  0.98213  -30.47
1081.928  0.98981  -31.60
1095.582  0.98952  -32.33
1109.237  0.98900  -32.38
1122.892  0.98324  -31.64
1136.546  0.97551  -31.36
1150.201  0.96892  -31.00
1163.855  0.96161  -30.60
1177.510  0.95407  -30.23
1191.165  0.95177  -31.32
1204.819  0.95630  -32.05
1218.474  0.96392  -33.05
1232.129  0.97034  -34.52
1245.783  0.97296  -35.58
1259.438  0.97937  -35.82
1273.092  0.97752  -36.19
1286.747  0.97222  -36.25
1300.402  0.96835  -36.01
1314.056  0.96016  -35.55
1327.711  0.94928  -35.60
1341.365  0.94417  -35.65
1355.020  0.93859  -36.31
1368.675  0.93883  -36.90
1382.329  0.94302  -38.24
1395.984  0.94868  -39.41
1409.639  0.96116  -40.34
1423.293  0.96312  -41.04
1436.948  0.96946  -41.62
1450.602  0.96512  -41.91
1464.257  0.96035  -42.36
1477.912  0.95424  -41.74
1491.566  0.94698  -40.64
1505.221  0.93783  -40.97
1518.876  0.93286  -41.37
1532.530  0.93351  -42.10
1546.185  0.93870  -42.97
1559.839  0.94145  -43.69
1573.494  0.95415  -44.08
1587.149  0.95486  -44.98
1600.803  0.95919  -45.07
1614.458  0.95681  -45.43
1628.112  0.94956  -45.89
1641.767  0.94402  -45.86
1655.422  0.93397  -46.22
1669.076  0.92963  -46.85
1682.731  0.92700  -46.86
1696.386  0.92567  -47.51
1710.040  0.92531  -48.61
1723.695  0.92995  -49.44
1737.349  0.93444  -50.53
1751.004  0.94189  -51.26
1764.659  0.93881  -52.27
1778.313  0.94544  -52.03
1791.968  0.93785  -53.57
1805.622  0.93580  -53.82
1819.277  0.93209  -54.15
1832.932  0.92102  -54.39
1846.586  0.91478  -55.01
1860.241  0.91771  -55.77
1873.896  0.91716  -56.41
1887.550  0.91896  -57.03
1901.205  0.92705  -58.26
1914.859  0.92966  -58.58
1928.514  0.92915  -59.21
1942.169  0.92807  -59.80
1955.823  0.92408  -59.74
1969.478  0.92058  -60.66
1983.133  0.91029  -61.71
1996.787  0.89698  -62.35
2010.442  0.90649  -62.74
2024.096  0.90768  -64.47
2037.751  0.90375  -65.29
2051.406  0.91035  -66.29
2065.060  0.91943  -67.19
2078.715  0.91959  -67.35
2092.369  0.91391  -68.23
2106.024  0.91728  -69.19
2119.679  0.91532  -70.02
2133.333  0.91287  -70.39
2146.988  0.89497  -71.34
2160.643  0.88536  -71.85
2174.297  0.88993  -72.34
2187.952  0.88784  -73.86
2201.606  0.88741  -74.57
2215.261  0.88997  -76.32
2228.916  0.89524  -76.96
2242.570  0.89549  -76.96
2256.225  0.89237  -77.82
2269.880  0.89739  -78.68
2283.534  0.88516  -80.54
2297.189  0.87321  -82.53
2310.843  0.85292  -83.81
2324.498  0.84539  -85.11
2338.153  0.86050  -87.36
2351.807  0.84960  -88.92
2365.462  0.84938  -90.22
2379.116  0.85370  -91.41
2392.771  0.86011  -92.76
2406.426  0.85127  -93.02
2420.080  0.84463  -92.86
2433.735  0.84187  -93.31
2447.390  0.81743  -96.48
2461.044  0.79180  -98.90
2474.699  0.76600 -100.06
2488.353  0.74990 -102.34
2502.008  0.74242 -106.06
2515.663  0.72212 -109.00
2529.317  0.71102 -111.29
2542.972  0.70300 -114.33
2556.627  0.67323 -116.26
2570.281  0.64644 -117.96
2583.936  0.61647 -119.43
2597.590  0.57433 -122.61
2611.245  0.51645 -123.49
2624.900  0.45693 -125.75
2638.554  0.39734 -127.13
2652.209  0.33342 -126.22
2665.863  0.27901 -123.41
2679.518  0.23285 -115.87
2693.173  0.20987 -101.77
2706.827  0.21680  -85.99
2720.482  0.25514  -72.97
2734.137  0.30838  -65.49
2747.791  0.36750  -61.19
2761.446  0.42151  -61.12
2775.100  0.46496  -61.96
2788.755  0.49991  -64.25
2802.410  0.52808  -66.07
2816.064  0.55653  -68.88
2829.719  0.58187  -73.03
2843.373  0.60480  -77.24
2857.028  0.63642  -80.73
2870.683  0.65564  -83.87
2884.337  0.68041  -86.46
2897.992  0.70444  -86.43
2911.647  0.73220  -87.30
2925.301  0.74061  -89.53
2938.956  0.74516  -91.22
2952.610  0.72861  -92.26
2966.265  0.72339  -94.38
2979.920  0.71208  -97.45
2993.574  0.70862  -99.37
3007.229  0.70251 -103.43
3020.884  0.70001 -106.13
3034.538  0.70587 -109.84
3048.193  0.70772 -111.06
3061.847  0.72624 -112.17
3075.502  0.73936 -114.48
3089.157  0.73320 -116.80
3102.811  0.72264 -118.38
3116.466  0.70704 -119.27
3130.120  0.68287 -120.39
3143.775  0.66298 -123.47
3157.430  0.64387 -126.73
3171.084  0.63029 -129.62
3184.739  0.61608 -133.02
3198.394  0.60947 -135.60
3212.048  0.59633 -137.31
3225.703  0.59532 -138.72
3239.357  0.58692 -140.06
3253.012  0.56638 -141.03
3266.667  0.54262 -140.26
3280.321  0.51570 -140.19
3293.976  0.49348 -138.22
3307.631  0.46966 -138.24
3321.285  0.45584 -138.23
3334.940  0.44794 -138.41
3348.594  0.45742 -139.14
3362.249  0.47406 -139.80
3375.904  0.50230 -139.13
3389.558  0.53603 -139.81
3403.213  0.56264 -137.71
3416.867  0.57132 -138.98
3430.522  0.57380 -140.78
3444.177  0.56297 -143.31
3457.831  0.56063 -147.26
3471.486  0.55365 -152.45
3485.141  0.54213 -157.72
3498.795  0.54910 -163.04
3512.450  0.56028 -167.94
3526.104  0.56777 -170.58
3539.759  0.58019 -171.84
3553.414  0.59365 -174.86
3567.068  0.59818 -176.87
3580.723  0.58988 -178.88
3594.378  0.57912  178.18
3608.032  0.54976  174.62
3621.687  0.51621  166.61
3635.341  0.50014  160.67
3648.996  0.49050  154.94
3662.651  0.47801  148.05
3676.305  0.46839  141.89
3689.960  0.44607  140.07
3703.614  0.45784  133.25
3717.269  0.44632  128.30
3730.924  0.42990  124.73
3744.578  0.39757  119.19
3758.233  0.37661  112.11
3771.888  0.31597  105.49
3785.542  0.30193   98.59
3799.197  0.30177   85.45
3812.851  0.30749   73.15
3826.506  0.31710   65.72
3840.161  0.33190   57.23
3853.815  0.31496   57.83
3867.470  0.27820   51.36
3881.124  0.25820   43.73
3894.779  0.22349   27.91
3908.434  0.17876   12.65
3922.088  0.19889   -6.36
3935.743  0.23430  -19.69
3949.398  0.25243  -30.96
3963.052  0.29535  -34.53
3976.707  0.30798  -43.21
3990.361  0.30114  -46.49
4004.016  0.28499  -54.24
4017.671  0.27175  -62.59
4031.325  0.26725  -74.89
4044.980  0.27987  -86.55
4058.635  0.29854  -98.50
4072.289  0.34116 -108.30
4085.944  0.37970 -113.85
4099.598  0.40745 -117.72
4113.253  0.43040 -119.85
4126.908  0.43394 -122.40
4140.562  0.41849 -127.50
4154.217  0.40969 -134.17
4167.871  0.40424 -139.94
4181.526  0.38482 -146.65
4195.181  0.41272 -155.54
4208.835  0.44271 -163.13
4222.490  0.46602 -168.48
4236.145  0.50777 -169.74
4249.799  0.53507 -173.79
4263.454  0.52592 -176.76
4277.108  0.51036 -179.92
4290.763  0.49538  176.37
4304.418  0.49812  170.43
4318.072  0.49591  165.78
4331.727  0.50247  159.17
4345.382  0.52130  154.48
4359.036  0.54936  151.28
4372.691  0.57786  150.45
4386.345  0.59821  148.88
4400.000  0.58434  145.95
