# MHz S MA R 50
!   freq        S11       
1000.000  0.97769  -32.04
1013.655  0.96489  -27.56
1027.309  0.95591  -26.59
1040.964  0.94034  -28.57
1054.618  1.00597  -25.22
1068.273  0.98378  -25.21
1081.928  0.97397  -26.07
1095.582  0.96212  -26.68
1109.237  0.96021  -27.80
1122.892  0.95877  -28.31
1136.546  0.95684  -28.95
1150.201  0.95455  -29.49
1163.855  0.95191  -30.13
1177.510  0.94855  -30.24
1191.165  0.94690  -30.62
1204.819  0.95042  -30.23
1218.474  0.95530  -30.45
1232.129  0.95641  -30.54
1245.783  0.95612  -30.87
1259.438  0.95678  -31.16
1273.092  0.95379  -31.62
1286.747  0.95263  -32.57
1300.402  0.94575  -33.53
1314.056  0.94495  -34.54
1327.711  0.94745  -35.21
1341.365  0.94508  -36.18
1355.020  0.94039  -36.26
1368.675  0.94107  -36.48
1382.329  0.94164  -36.50
1395.984  0.94659  -36.46
1409.639  0.94868  -35.84
1423.293  0.94992  -36.20
1436.948  0.94712  -36.97
1450.602  0.94581  -37.38
1464.257  0.94347  -38.66
1477.912  0.94094  -39.22
1491.566  0.93765  -40.86
1505.221  0.93424  -41.50
1518.876  0.93202  -41.72
1532.530  0.93086  -42.01
1546.185  0.92989  -41.82
1559.839  0.93283  -41.37
1573.494  0.93684  -41.54
1587.149  0.93792  -41.65
1600.803  0.93849  -42.19
1614.458  0.93634  -42.80
1628.112  0.93728  -43.97
1641.767  0.93237  -45.50
1655.422  0.93272  -46.61
1669.076  0.93237  -46.86
1682.731  0.92998  -47.06
1696.386  0.93752  -46.26
1710.040  0.92402  -47.51
1723.695  0.91937  -48.22
1737.349  0.92010  -48.16
1751.004  0.92291  -48.00
1764.659  0.93847  -47.37
1778.313  0.93121  -48.65
1791.968  0.92728  -49.78
1805.622  0.92392  -51.40
1819.277  0.91482  -52.90
1832.932  0.91823  -54.27
1846.586  0.91951  -55.66
1860.241  0.92310  -56.93
1873.896  0.92917  -57.09
1887.550  0.92592  -57.19
1901.205  0.93158  -56.54
1914.859  0.92579  -56.48
1928.514  0.92045  -56.02
1942.169  0.91524  -56.60
1955.823  0.91390  -57.42
1969.478  0.91157  -58.69
1983.133  0.90353  -61.64
1996.787  0.89966  -63.33
2010.442  0.90601  -64.00
2024.096  0.91131  -65.31
2037.751  0.91037  -65.86
2051.406  0.91281  -66.10
2065.060  0.92015  -65.57
2078.715  0.91480  -65.03
2092.369  0.91180  -64.68
2106.024  0.90790  -64.71
2119.679  0.90386  -66.19
2133.333  0.89749  -67.60
2146.988  0.88643  -70.01
2160.643  0.87791  -72.01
2174.297  0.88588  -73.73
2187.952  0.89217  -75.28
2201.606  0.89686  -75.86
2215.261  0.89745  -76.20
2228.916  0.89982  -76.55
2242.570  0.89680  -76.15
2256.225  0.88858  -75.40
2269.880  0.88803  -75.97
2283.534  0.88820  -77.63
2297.189  0.86630  -80.04
2310.843  0.84627  -81.99
2324.498  0.84111  -85.10
2338.153  0.85717  -87.64
2351.807  0.86242  -90.17
2365.462  0.85198  -90.24
2379.116  0.85711  -90.73
2392.771  0.84877  -91.25
2406.426  0.84301  -90.46
2420.080  0.83496  -90.55
2433.735  0.84238  -89.07
2447.390  0.81352  -93.73
2461.044  0.78288  -96.83
2474.699  0.75269  -99.52
2488.353  0.74478 -102.95
2502.008  0.74047 -106.58
2515.663  0.73265 -110.01
2529.317  0.72058 -112.26
2542.972  0.70230 -113.23
2556.627  0.68521 -113.76
2570.281  0.65146 -113.71
2583.936  0.61396 -115.14
2597.590  0.56210 -116.98
2611.245  0.49909 -119.14
2624.900  0.43615 -122.68
2638.554  0.37433 -125.50
2652.209  0.32444 -126.76
2665.863  0.27833 -126.14
2679.518  0.24245 -119.74
2693.173  0.22749 -110.59
2706.827  0.24368  -95.79
2720.482  0.28527  -82.70
2734.137  0.33842  -73.74
2747.791  0.39952  -67.57
2761.446  0.46534  -60.25
2775.100  0.49871  -59.55
2788.755  0.52657  -59.49
2802.410  0.53373  -60.98
2816.064  0.55861  -65.57
2829.719  0.57571  -70.62
2843.373  0.60545  -76.63
2857.028  0.64885  -80.59
2870.683  0.67243  -85.37
2884.337  0.70812  -89.44
2897.992  0.74557  -89.91
2911.647  0.79927  -88.41
2925.301  0.80079  -89.14
2938.956  0.77717  -92.04
2952.610  0.75525  -90.67
2966.265  0.73047  -92.53
2979.920  0.71885  -95.47
2993.574  0.71037  -99.41
3007.229  0.70901 -104.18
3020.884  0.71735 -108.71
3034.538  0.73724 -112.75
3048.193  0.74815 -115.41
3061.847  0.77063 -116.71
3075.502  0.79053 -117.82
3089.157  0.78417 -119.47
3102.811  0.76324 -118.43
3116.466  0.73593 -119.79
3130.120  0.71108 -119.51
3143.775  0.68442 -123.43
3157.430  0.66521 -126.85
3171.084  0.65613 -131.21
3184.739  0.65676 -135.34
3198.394  0.65867 -139.16
3212.048  0.65190 -141.70
3225.703  0.66342 -142.53
3239.357  0.64808 -145.71
3253.012  0.63381 -145.26
3266.667  0.61722 -143.85
3280.321  0.57043 -142.10
3293.976  0.52447 -143.88
3307.631  0.49019 -145.27
3321.285  0.46120 -146.33
3334.940  0.45469 -147.82
3348.594  0.45338 -149.79
3362.249  0.47099 -149.54
3375.904  0.49824 -149.08
3389.558  0.53149 -145.28
3403.213  0.55707 -145.32
3416.867  0.56183 -145.03
3430.522  0.57848 -143.16
3444.177  0.55328 -145.94
3457.831  0.53391 -148.83
3471.486  0.52199 -154.23
3485.141  0.51621 -159.10
3498.795  0.52330 -165.07
3512.450  0.53876 -170.24
3526.104  0.55931 -173.47
3539.759  0.57333 -175.12
3553.414  0.58310 -178.39
3567.068  0.57294  179.11
3580.723  0.55926  177.51
3594.378  0.54469  172.82
3608.032  0.51388  169.05
3621.687  0.49600  163.87
3635.341  0.48254  157.56
3648.996  0.47595  150.90
3662.651  0.47764  145.08
3676.305  0.47883  142.08
3689.960  0.47627  137.94
3703.614  0.47476  135.95
3717.269  0.45137  132.50
3730.924  0.42191  128.81
3744.578  0.37699  123.02
3758.233  0.35041  113.94
3771.888  0.31249  101.84
3785.542  0.29972   89.93
3799.197  0.29705   80.29
3812.851  0.32732   72.74
3826.506  0.32412   64.05
3840.161  0.33126   63.97
3853.815  0.31672   63.65
3867.470  0.28650   56.12
3881.124  0.21225   49.81
3894.779  0.20377   31.55
3908.434  0.20510    8.07
3922.088  0.20537  -11.31
3935.743  0.24993  -22.76
3949.398  0.30234  -34.55
3963.052  0.31080  -32.19
3976.707  0.30948  -38.32
3990.361  0.29015  -42.45
4004.016  0.26224  -49.81
4017.671  0.23128  -66.66
4031.325  0.23413  -83.47
4044.980  0.28552  -98.34
4058.635  0.34691 -108.96
4072.289  0.39648 -111.94
4085.944  0.47396 -109.91
4099.598  0.50773 -106.44
4113.253  0.49819 -104.99
4126.908  0.48451 -108.16
4140.562  0.45023 -116.93
4154.217  0.40431 -127.08
4167.871  0.39640 -139.21
4181.526  0.38843 -150.69
4195.181  0.40986 -163.27
4208.835  0.43435 -168.22
4222.490  0.50431 -169.59
4236.145  0.57161 -170.85
4249.799  0.67035 -169.78
4263.454  0.69568 -166.07
4277.108  0.76149 -165.84
4290.763  0.73503 -168.15
4304.418  0.68103 -174.55
4318.072  0.61266  175.57
4331.727  0.55177  165.42
4345.382  0.54925  157.59
4359.036  0.54706  149.78
4372.691  0.57668  145.25
4386.345  0.61795  144.13
4400.000  0.69292  143.28
