# MHz S MA R 50
!   freq        S11       
1000.000  0.95056  -24.80
1013.655  0.94812  -25.67
1027.309  0.95089  -26.17
1040.964  0.95556  -27.02
1054.618  0.97500  -28.78
1068.273  0.97950  -30.31
1081.928  0.98442  -31.48
1095.582  0.98551  -32.56
1109.237  0.98674  -32.25
1122.892  0.98142  -31.92
1136.546  0.97486  -31.42
1150.201  0.96750  -30.92
1163.855  0.96018  -30.18
1177.510  0.95433  -30.12
1191.165  0.95132  -31.10
1204.819  0.95512  -31.54
1218.474  0.96144  -32.99
1232.129  0.96559  -34.16
1245.783  0.96982  -35.24
1259.438  0.97461  -35.98
1273.092  0.97407  -36.46
1286.747  0.96746  -36.35
1300.402  0.96603  -35.62
1314.056  0.95700  -35.36
1327.711  0.95039  -35.56
1341.365  0.94332  -35.12
1355.020  0.93811  -35.92
1368.675  0.93788  -36.24
1382.329  0.94222  -38.02
1395.984  0.94616  -39.00
1409.639  0.95752  -40.23
1423.293  0.96027  -41.07
1436.948  0.96677  -41.31
1450.602  0.96138  -41.89
1464.257  0.95728  -42.02
1477.912  0.95354  -41.45
1491.566  0.94128  -40.37
1505.221  0.93836  -40.66
1518.876  0.93332  -41.13
1532.530  0.93437  -41.80
1546.185  0.93720  -42.50
1559.839  0.93975  -43.18
1573.494  0.95044  -44.11
1587.149  0.95159  -45.02
1600.803  0.95611  -44.58
1614.458  0.95447  -45.34
1628.112  0.94907  -45.89
1641.767  0.94409  -45.51
1655.422  0.93615  -45.98
1669.076  0.93197  -46.12
1682.731  0.92833  -46.34
1696.386  0.92679  -46.82
1710.040  0.92548  -47.89
1723.695  0.92881  -49.14
1737.349  0.93249  -50.14
1751.004  0.94079  -51.22
1764.659  0.93562  -51.93
1778.313  0.94509  -52.33
1791.968  0.93746  -53.57
1805.622  0.93394  -53.14
1819.277  0.93314  -53.87
1832.932  0.92185  -53.66
1846.586  0.91629  -54.22
1860.241  0.91864  -54.76
1873.896  0.91725  -55.92
1887.550  0.91634  -57.11
1901.205  0.92557  -57.97
1914.859  0.92540  -58.79
1928.514  0.92492  -59.11
1942.169  0.92492  -60.41
1955.823  0.92165  -60.57
1969.478  0.92058  -61.14
1983.133  0.91065  -61.58
1996.787  0.89851  -62.79
2010.442  0.90869  -62.36
2024.096  0.90766  -63.99
2037.751  0.90297  -65.23
2051.406  0.90710  -66.02
2065.060  0.91394  -67.15
2078.715  0.91472  -68.06
2092.369  0.90854  -68.98
2106.024  0.91120  -69.50
2119.679  0.91264  -70.24
2133.333  0.91157  -70.92
2146.988  0.89104  -71.34
2160.643  0.88465  -72.37
2174.297  0.88791  -72.71
2187.952  0.88818  -73.77
2201.606  0.88449  -75.19
2215.261  0.88683  -76.15
2228.916  0.88905  -76.93
2242.570  0.88945  -77.68
2256.225  0.88452  -79.33
2269.880  0.88790  -79.59
2283.534  0.87513  -81.27
2297.189  0.86775  -83.03
2310.843  0.84990  -85.03
2324.498  0.84249  -86.20
2338.153  0.85650  -87.10
2351.807  0.84863  -89.22
2365.462  0.84369  -90.75
2379.116  0.84898  -91.66
2392.771  0.85108  -93.59
2406.426  0.84398  -93.66
2420.080  0.83887  -93.40
2433.735  0.82840  -95.08
2447.390  0.81349  -98.01
2461.044  0.78420  -99.63
2474.699  0.76309 -101.84
2488.353  0.74609 -103.35
2502.008  0.73580 -106.82
2515.663  0.71557 -109.91
2529.317  0.70178 -112.34
2542.972  0.68933 -115.86
2556.627  0.65967 -118.09
2570.281  0.62684 -119.99
2583.936  0.60060 -121.66
2597.590  0.55629 -124.91
2611.245  0.50117 -126.41
2624.900  0.44455 -128.16
2638.554  0.38239 -129.19
2652.209  0.32061 -128.66
2665.863  0.26469 -124.84
2679.518  0.21778 -116.22
2693.173  0.19444 -100.96
2706.827  0.20328  -83.67
2720.482  0.24132  -70.71
2734.137  0.29448  -63.69
2747.791  0.35324  -59.79
2761.446  0.40715  -59.49
2775.100  0.45181  -61.12
2788.755  0.49022  -63.42
2802.410  0.52010  -64.55
2816.064  0.55262  -68.51
2829.719  0.57992  -72.12
2843.373  0.60387  -76.37
2857.028  0.63558  -79.43
2870.683  0.65435  -82.80
2884.337  0.67849  -85.31
2897.992  0.70069  -85.54
2911.647  0.72773  -86.38
2925.301  0.73898  -88.74
2938.956  0.74155  -90.84
2952.610  0.72760  -92.13
2966.265  0.72309  -94.70
2979.920  0.71827  -96.98
2993.574  0.71580  -99.52
3007.229  0.71097 -103.25
3020.884  0.70865 -106.14
3034.538  0.71648 -109.44
3048.193  0.71644 -110.72
3061.847  0.72901 -113.21
3075.502  0.74091 -116.02
3089.157  0.73815 -119.04
3102.811  0.72999 -120.50
3116.466  0.71612 -121.13
3130.120  0.69547 -123.02
3143.775  0.67515 -125.47
3157.430  0.65628 -129.24
3171.084  0.63990 -131.82
3184.739  0.62507 -134.85
3198.394  0.61258 -138.16
3212.048  0.59585 -139.48
3225.703  0.58586 -141.60
3239.357  0.57271 -142.32
3253.012  0.55353 -143.32
3266.667  0.53085 -143.56
3280.321  0.50214 -142.00
3293.976  0.48537 -139.62
3307.631  0.46809 -140.22
3321.285  0.46246 -139.60
3334.940  0.45657 -140.43
3348.594  0.46595 -141.36
3362.249  0.47541 -143.28
3375.904  0.49563 -141.85
3389.558  0.52087 -144.11
3403.213  0.54257 -143.00
3416.867  0.54339 -144.30
3430.522  0.54437 -147.16
3444.177  0.53183 -149.54
3457.831  0.52509 -153.05
3471.486  0.52002 -156.70
3485.141  0.50934 -161.54
3498.795  0.51830 -167.14
3512.450  0.51605 -171.39
3526.104  0.53021 -173.43
3539.759  0.53870 -175.14
3553.414  0.54684 -176.80
3567.068  0.54925 -178.89
3580.723  0.53950  178.43
3594.378  0.53711  174.66
3608.032  0.50746  172.62
3621.687  0.48103  165.24
3635.341  0.47139  159.09
3648.996  0.46021  154.97
3662.651  0.44237  148.19
3676.305  0.42584  144.10
3689.960  0.40767  139.61
3703.614  0.42049  131.97
3717.269  0.41535  128.11
3730.924  0.39822  122.54
3744.578  0.37446  118.13
3758.233  0.35480  111.04
3771.888  0.29971  108.58
3785.542  0.27975   98.95
3799.197  0.28507   83.86
3812.851  0.26973   74.84
3826.506  0.30043   68.11
3840.161  0.31538   58.34
3853.815  0.29153   57.42
3867.470  0.27002   50.10
3881.124  0.23815   45.00
3894.779  0.21167   27.31
3908.434  0.17639   10.38
3922.088  0.18055  -10.11
3935.743  0.21752  -20.78
3949.398  0.23999  -29.06
3963.052  0.26764  -36.79
3976.707  0.27526  -44.60
3990.361  0.29089  -48.14
4004.016  0.27795  -57.74
4017.671  0.26700  -65.66
4031.325  0.26453  -77.31
4044.980  0.27673  -88.81
4058.635  0.29630 -100.40
4072.289  0.33757 -109.38
4085.944  0.37567 -114.86
4099.598  0.39846 -119.57
4113.253  0.41963 -123.55
4126.908  0.43584 -124.58
4140.562  0.42462 -130.49
4154.217  0.41079 -134.42
4167.871  0.39853 -140.85
4181.526  0.39437 -150.82
4195.181  0.41809 -156.35
4208.835  0.44604 -163.95
4222.490  0.46520 -171.03
4236.145  0.47779 -172.76
4249.799  0.51728 -177.04
4263.454  0.51760  179.88
4277.108  0.50182  176.73
4290.763  0.48175  174.60
4304.418  0.49827  168.27
4318.072  0.48465  165.37
4331.727  0.50048  157.54
4345.382  0.51996  154.60
4359.036  0.54127  150.36
4372.691  0.57335  149.59
4386.345  0.58294  147.45
4400.000  0.58272  144.93
