# MHz S MA R 50
!   freq        S11       
2300.000  0.88033  -86.48
2303.213  0.87414  -86.40
2306.426  0.85344  -87.05
2309.639  0.85956  -86.66
2312.851  0.86627  -87.87
2316.064  0.85069  -87.31
2319.277  0.86162  -86.98
2322.490  0.84545  -88.23
2325.703  0.84781  -88.38
2328.916  0.85474  -87.78
2332.129  0.85624  -88.64
2335.341  0.85336  -88.50
2338.554  0.85727  -89.16
2341.767  0.86039  -90.17
2344.980  0.85527  -89.59
2348.193  0.85174  -90.54
2351.406  0.84828  -90.70
2354.618  0.84321  -91.63
2357.831  0.84424  -91.51
2361.044  0.84055  -92.30
2364.257  0.83583  -91.83
2367.470  0.84467  -92.75
2370.683  0.85421  -93.86
2373.896  0.84701  -93.66
2377.108  0.84622  -94.62
2380.321  0.82829  -94.46
2383.534  0.84014  -95.05
2386.747  0.84813  -94.93
2389.960  0.83706  -95.41
2393.173  0.83438  -95.92
2396.386  0.83462  -96.05
2399.598  0.83845  -96.71
2402.811  0.82862  -96.28
2406.024  0.83561  -96.51
2409.237  0.83446  -96.14
2412.450  0.82697  -97.47
2415.663  0.82082  -97.98
2418.876  0.82571  -98.10
2422.088  0.82080  -98.42
2425.301  0.82602  -98.74
2428.514  0.82253  -99.07
2431.727  0.82160  -98.42
2434.940  0.81437  -98.81
2438.153  0.81702 -100.13
2441.365  0.81443 -100.61
2444.578  0.81232 -101.16
2447.791  0.80987 -100.16
2451.004  0.79661 -101.24
2454.217  0.80426 -101.35
2457.430  0.80043 -102.92
2460.643  0.78944 -102.09
2463.855  0.80064 -102.66
2467.068  0.79187 -102.50
2470.281  0.79086 -102.82
2473.494  0.79098 -103.05
2476.707  0.78032 -103.57
2479.920  0.77208 -103.14
2483.133  0.76146 -104.32
2486.345  0.77027 -104.95
2489.558  0.75977 -105.33
2492.771  0.76138 -105.94
2495.984  0.78032 -107.63
2499.197  0.75434 -107.48
2502.410  0.74409 -106.52
2505.622  0.74766 -107.33
2508.835  0.73944 -108.21
2512.048  0.73443 -109.04
2515.261  0.72924 -110.04
2518.474  0.72081 -110.73
2521.687  0.71633 -110.86
2524.900  0.71225 -112.17
2528.112  0.70531 -112.51
2531.325  0.69690 -112.90
2534.538  0.69873 -113.93
2537.751  0.68836 -114.18
2540.964  0.68078 -115.05
2544.177  0.67513 -116.15
2547.390  0.67276 -116.43
2550.602  0.66790 -117.25
2553.815  0.65563 -118.14
2557.028  0.66094 -118.78
2560.241  0.65171 -119.95
2563.454  0.64422 -119.96
2566.667  0.63879 -120.31
2569.880  0.62395 -121.53
2573.092  0.62362 -123.24
2576.305  0.62113 -122.62
2579.518  0.61130 -122.77
2582.731  0.60658 -123.64
2585.944  0.59644 -124.53
2589.157  0.58846 -125.53
2592.369  0.58388 -125.67
2595.582  0.56744 -126.60
2598.795  0.55725 -127.59
2602.008  0.54983 -127.89
2605.221  0.53993 -127.93
2608.434  0.53179 -128.56
2611.647  0.51764 -129.21
2614.859  0.50513 -129.31
2618.072  0.49766 -128.60
2621.285  0.48976 -129.40
2624.498  0.47057 -128.90
2627.711  0.46093 -129.49
2630.924  0.45181 -129.77
2634.137  0.43538 -129.96
2637.349  0.42482 -129.55
2640.562  0.41248 -129.35
2643.775  0.40280 -127.64
2646.988  0.38653 -128.75
2650.201  0.37204 -127.72
2653.414  0.35684 -126.94
2656.627  0.34475 -127.28
2659.839  0.33065 -125.97
2663.052  0.31839 -124.98
2666.265  0.30484 -124.59
2669.478  0.29054 -122.14
2672.691  0.27922 -120.30
2675.904  0.26730 -119.48
2679.116  0.25848 -117.23
2682.329  0.24434 -114.05
2685.542  0.23779 -112.54
2688.755  0.23113 -109.21
2691.968  0.22946 -106.09
2695.181  0.21761 -102.18
2698.394  0.21583  -98.75
2701.606  0.21717  -95.52
2704.819  0.21409  -91.66
2708.032  0.22397  -88.78
2711.245  0.22382  -85.10
2714.458  0.22459  -82.79
2717.671  0.23307  -79.58
2720.884  0.23495  -76.89
2724.096  0.24551  -74.86
2727.309  0.25681  -72.66
2730.522  0.26109  -70.40
2733.735  0.27816  -69.83
2736.948  0.27927  -68.44
2740.161  0.29793  -67.77
2743.373  0.31289  -67.00
2746.586  0.32173  -66.85
2749.799  0.33599  -65.34
2753.012  0.34054  -65.06
2756.225  0.36054  -65.57
2759.438  0.37109  -64.39
2762.651  0.38331  -66.47
2765.863  0.39600  -66.04
2769.076  0.41081  -65.41
2772.289  0.42184  -65.96
2775.502  0.42862  -67.49
2778.715  0.43955  -67.28
2781.928  0.45207  -67.73
2785.141  0.46325  -69.01
2788.353  0.46911  -68.67
2791.566  0.48170  -69.20
2794.779  0.49696  -69.01
2797.992  0.49940  -70.19
2801.205  0.51374  -70.78
2804.418  0.51849  -71.46
2807.631  0.52645  -71.47
2810.843  0.53992  -71.60
2814.056  0.54889  -72.05
2817.269  0.55636  -72.47
2820.482  0.57210  -72.91
2823.695  0.57017  -73.64
2826.908  0.58654  -73.96
2830.120  0.58923  -75.37
2833.333  0.59951  -75.17
2836.546  0.60584  -76.57
2839.759  0.61070  -76.96
2842.972  0.61321  -77.45
2846.185  0.62115  -78.02
2849.398  0.62138  -77.45
2852.610  0.62981  -79.20
2855.823  0.63027  -79.74
2859.036  0.63342  -79.84
2862.249  0.63925  -80.39
2865.462  0.64678  -80.67
2868.675  0.64468  -80.02
2871.888  0.64864  -82.28
2875.100  0.64954  -82.37
2878.313  0.65672  -83.04
2881.526  0.65566  -84.15
2884.739  0.65525  -85.33
2887.952  0.66236  -85.74
2891.165  0.65941  -86.00
2894.378  0.66743  -86.95
2897.590  0.67473  -86.54
2900.803  0.68522  -86.70
2904.016  0.68095  -86.76
2907.229  0.69234  -88.42
2910.442  0.69758  -89.54
2913.655  0.69359  -90.38
2916.867  0.69927  -90.46
2920.080  0.69280  -90.89
2923.293  0.70327  -91.66
2926.506  0.71088  -92.83
2929.719  0.71128  -94.61
2932.932  0.72145  -95.08
2936.145  0.69804  -95.01
2939.357  0.71322  -95.57
2942.570  0.70727  -95.33
2945.783  0.71305  -96.45
2948.996  0.70657  -95.78
2952.209  0.71162  -97.30
2955.422  0.72094  -97.30
2958.635  0.70689  -97.85
2961.847  0.71486  -98.46
2965.060  0.71596  -98.45
2968.273  0.71662  -99.83
2971.486  0.72961  -99.52
2974.699  0.73016  -99.72
2977.912  0.73453 -100.88
2981.124  0.73625 -101.11
2984.337  0.73234 -102.04
2987.550  0.72916 -101.71
2990.763  0.73413 -102.48
2993.976  0.73361 -103.17
2997.189  0.73222 -104.00
3000.402  0.73459 -103.54
3003.614  0.72989 -104.90
3006.827  0.72493 -104.53
3010.040  0.72250 -105.50
3013.253  0.73739 -106.23
3016.466  0.72815 -106.10
3019.679  0.71704 -106.76
3022.892  0.73189 -107.25
3026.104  0.72588 -108.60
3029.317  0.72174 -110.12
3032.530  0.72170 -109.89
3035.743  0.71008 -110.54
3038.956  0.71912 -111.06
3042.169  0.72133 -112.11
3045.382  0.71974 -111.74
3048.594  0.71941 -111.67
3051.807  0.72317 -111.87
3055.020  0.71974 -112.44
3058.233  0.72503 -113.43
3061.446  0.72224 -114.13
3064.659  0.71850 -114.64
3067.871  0.72313 -115.48
3071.084  0.71446 -116.48
3074.297  0.71768 -117.02
3077.510  0.71367 -117.51
3080.723  0.71454 -117.26
3083.936  0.71156 -119.24
3087.149  0.70765 -118.91
3090.361  0.70912 -119.72
3093.574  0.71480 -121.02
3096.787  0.70780 -121.12
3100.000  0.70315 -122.48
