# MHz S MA R 50
!   freq        S11       
2300.000  0.86843  -83.93
2303.213  0.86988  -83.30
2306.426  0.86905  -83.62
2309.639  0.85082  -84.06
2312.851  0.85905  -84.84
2316.064  0.85163  -85.01
2319.277  0.85361  -84.48
2322.490  0.84811  -84.87
2325.703  0.84900  -85.03
2328.916  0.85528  -85.74
2332.129  0.86075  -85.22
2335.341  0.85544  -85.16
2338.554  0.85707  -85.84
2341.767  0.85365  -86.61
2344.980  0.85303  -86.15
2348.193  0.85102  -86.68
2351.406  0.84732  -86.88
2354.618  0.83705  -87.80
2357.831  0.83463  -87.83
2361.044  0.83883  -87.90
2364.257  0.84187  -88.70
2367.470  0.84222  -89.02
2370.683  0.84619  -89.03
2373.896  0.83169  -89.45
2377.108  0.84413  -89.63
2380.321  0.83506  -89.96
2383.534  0.82886  -90.78
2386.747  0.83521  -91.24
2389.960  0.82812  -90.77
2393.173  0.83212  -91.63
2396.386  0.81146  -92.08
2399.598  0.82881  -92.41
2402.811  0.81538  -92.39
2406.024  0.81932  -93.00
2409.237  0.81414  -93.17
2412.450  0.81743  -93.79
2415.663  0.82142  -93.12
2418.876  0.81735  -94.22
2422.088  0.81395  -95.50
2425.301  0.82317  -95.31
2428.514  0.80951  -95.41
2431.727  0.81317  -95.87
2434.940  0.80770  -96.93
2438.153  0.80798  -97.95
2441.365  0.80762  -97.75
2444.578  0.80780  -97.91
2447.791  0.80157  -98.42
2451.004  0.79331  -98.13
2454.217  0.80376  -99.73
2457.430  0.78482  -99.85
2460.643  0.78741 -100.48
2463.855  0.78696 -100.22
2467.068  0.77710 -100.43
2470.281  0.77908 -100.73
2473.494  0.77705 -101.89
2476.707  0.76493 -101.50
2479.920  0.77142 -102.42
2483.133  0.75979 -101.57
2486.345  0.75653 -103.16
2489.558  0.76658 -102.64
2492.771  0.76225 -103.87
2495.984  0.77357 -105.94
2499.197  0.74549 -104.74
2502.410  0.74699 -105.35
2505.622  0.73989 -106.04
2508.835  0.72970 -106.13
2512.048  0.72681 -107.32
2515.261  0.71474 -107.98
2518.474  0.71429 -108.12
2521.687  0.70986 -109.09
2524.900  0.70510 -109.02
2528.112  0.69442 -109.55
2531.325  0.69593 -110.86
2534.538  0.68582 -111.34
2537.751  0.68456 -112.31
2540.964  0.67860 -112.38
2544.177  0.66176 -113.10
2547.390  0.66220 -113.73
2550.602  0.65622 -114.62
2553.815  0.64925 -115.29
2557.028  0.64095 -116.81
2560.241  0.63140 -117.71
2563.454  0.62475 -117.63
2566.667  0.61597 -118.23
2569.880  0.61316 -119.64
2573.092  0.60385 -119.94
2576.305  0.60142 -119.62
2579.518  0.59102 -120.19
2582.731  0.57970 -122.18
2585.944  0.57290 -121.85
2589.157  0.56875 -123.26
2592.369  0.55608 -124.83
2595.582  0.54291 -124.52
2598.795  0.53756 -125.65
2602.008  0.52781 -126.40
2605.221  0.51854 -127.17
2608.434  0.50238 -126.60
2611.647  0.48744 -127.72
2614.859  0.47708 -127.31
2618.072  0.46953 -127.67
2621.285  0.44997 -127.63
2624.498  0.44548 -128.35
2627.711  0.42763 -128.93
2630.924  0.41399 -127.83
2634.137  0.40308 -127.96
2637.349  0.38807 -128.21
2640.562  0.37514 -126.04
2643.775  0.35945 -126.41
2646.988  0.34657 -126.18
2650.201  0.33463 -124.84
2653.414  0.31645 -125.20
2656.627  0.30278 -122.02
2659.839  0.28968 -122.50
2663.052  0.27880 -120.95
2666.265  0.26279 -117.70
2669.478  0.25186 -116.14
2672.691  0.24209 -114.26
2675.904  0.23049 -111.15
2679.116  0.22112 -106.54
2682.329  0.21461 -102.86
2685.542  0.20697  -98.91
2688.755  0.20863  -95.26
2691.968  0.20270  -90.61
2695.181  0.20578  -87.39
2698.394  0.20652  -82.90
2701.606  0.21060  -79.49
2704.819  0.21489  -75.73
2708.032  0.22231  -72.84
2711.245  0.22627  -69.72
2714.458  0.23555  -67.29
2717.671  0.24338  -64.90
2720.884  0.26009  -63.29
2724.096  0.26767  -61.14
2727.309  0.27145  -60.22
2730.522  0.28687  -59.00
2733.735  0.30275  -58.51
2736.948  0.31055  -57.61
2740.161  0.32399  -58.34
2743.373  0.33681  -57.87
2746.586  0.34764  -57.72
2749.799  0.35699  -57.65
2753.012  0.36783  -59.20
2756.225  0.37894  -59.21
2759.438  0.39536  -58.87
2762.651  0.40691  -59.60
2765.863  0.41746  -59.14
2769.076  0.42649  -60.65
2772.289  0.44077  -61.83
2775.502  0.45558  -61.47
2778.715  0.45923  -63.04
2781.928  0.47083  -63.78
2785.141  0.48071  -63.06
2788.353  0.48986  -65.18
2791.566  0.49796  -65.82
2794.779  0.51141  -65.29
2797.992  0.51208  -66.74
2801.205  0.52452  -67.24
2804.418  0.53950  -68.16
2807.631  0.54624  -68.70
2810.843  0.55193  -69.91
2814.056  0.56888  -69.45
2817.269  0.57571  -70.16
2820.482  0.58201  -70.86
2823.695  0.58850  -72.03
2826.908  0.60109  -72.28
2830.120  0.60512  -73.80
2833.333  0.60975  -73.72
2836.546  0.62342  -74.64
2839.759  0.63032  -74.78
2842.972  0.63000  -75.42
2846.185  0.63848  -75.37
2849.398  0.64087  -77.29
2852.610  0.64823  -76.70
2855.823  0.64433  -76.69
2859.036  0.65297  -78.02
2862.249  0.65773  -78.26
2865.462  0.66216  -79.26
2868.675  0.66287  -79.89
2871.888  0.66587  -79.76
2875.100  0.67052  -79.99
2878.313  0.67666  -80.64
2881.526  0.68381  -81.24
2884.739  0.67641  -81.94
2887.952  0.68104  -82.16
2891.165  0.68684  -82.34
2894.378  0.68313  -82.95
2897.590  0.68677  -83.38
2900.803  0.69536  -84.25
2904.016  0.69333  -83.74
2907.229  0.70034  -85.70
2910.442  0.69695  -85.33
2913.655  0.71493  -86.79
2916.867  0.70951  -87.50
2920.080  0.70933  -88.73
2923.293  0.71445  -89.40
2926.506  0.71451  -89.35
2929.719  0.71524  -90.44
2932.932  0.71142  -91.14
2936.145  0.70963  -91.19
2939.357  0.71635  -92.48
2942.570  0.70986  -92.70
2945.783  0.71355  -93.02
2948.996  0.71428  -93.45
2952.209  0.71635  -93.83
2955.422  0.71871  -94.27
2958.635  0.71630  -94.79
2961.847  0.71835  -95.09
2965.060  0.71845  -96.57
2968.273  0.72367  -96.64
2971.486  0.72716  -96.54
2974.699  0.72805  -97.98
2977.912  0.73295  -97.07
2981.124  0.73336  -98.18
2984.337  0.73638  -99.49
2987.550  0.73199  -99.03
2990.763  0.73813 -100.23
2993.976  0.73759 -100.26
2997.189  0.73886 -100.83
3000.402  0.73801 -100.86
3003.614  0.73309 -101.50
3006.827  0.72112 -101.61
3010.040  0.73438 -102.40
3013.253  0.72702 -103.21
3016.466  0.72474 -103.46
3019.679  0.73454 -104.17
3022.892  0.72837 -104.89
3026.104  0.72593 -105.25
3029.317  0.72440 -105.54
3032.530  0.72548 -106.22
3035.743  0.72481 -106.72
3038.956  0.71939 -107.06
3042.169  0.70981 -107.57
3045.382  0.72044 -107.42
3048.594  0.71960 -107.97
3051.807  0.72339 -109.19
3055.020  0.71537 -109.00
3058.233  0.71878 -109.32
3061.446  0.71829 -111.36
3064.659  0.72106 -112.32
3067.871  0.71746 -111.96
3071.084  0.71870 -114.01
3074.297  0.72139 -113.66
3077.510  0.71694 -115.47
3080.723  0.71690 -115.86
3083.936  0.71404 -115.33
3087.149  0.70782 -117.24
3090.361  0.71002 -118.31
3093.574  0.70697 -119.40
3096.787  0.70719 -118.10
3100.000  0.70062 -118.84
