# MHz S MA R 50
!   freq        S11       
1000.000  0.96612  -31.82
1013.655  0.94913  -28.02
1027.309  0.94017  -26.87
1040.964  0.92499  -28.82
1054.618  0.98871  -25.68
1068.273  0.96624  -25.80
1081.928  0.95610  -26.58
1095.582  0.94355  -27.05
1109.237  0.94089  -27.99
1122.892  0.93839  -28.69
1136.546  0.93633  -29.29
1150.201  0.93129  -29.74
1163.855  0.93165  -30.48
1177.510  0.92995  -30.72
1191.165  0.92592  -31.23
1204.819  0.92817  -30.91
1218.474  0.93285  -30.93
1232.129  0.93291  -31.35
1245.783  0.93213  -31.76
1259.438  0.93161  -31.83
1273.092  0.92819  -32.56
1286.747  0.92451  -33.00
1300.402  0.92037  -34.15
1314.056  0.91952  -35.05
1327.711  0.91905  -35.87
1341.365  0.92023  -36.92
1355.020  0.91357  -37.06
1368.675  0.91525  -37.01
1382.329  0.91832  -36.93
1395.984  0.91743  -36.51
1409.639  0.92087  -36.53
1423.293  0.92160  -36.56
1436.948  0.91886  -37.33
1450.602  0.91753  -37.96
1464.257  0.91472  -39.21
1477.912  0.91291  -39.96
1491.566  0.91349  -41.17
1505.221  0.90568  -41.91
1518.876  0.90359  -42.33
1532.530  0.90210  -42.43
1546.185  0.90178  -42.43
1559.839  0.90545  -42.00
1573.494  0.90859  -42.24
1587.149  0.90915  -42.50
1600.803  0.90999  -42.73
1614.458  0.90609  -43.17
1628.112  0.90667  -44.96
1641.767  0.90263  -46.37
1655.422  0.90224  -47.18
1669.076  0.90440  -47.99
1682.731  0.90084  -47.95
1696.386  0.91072  -47.00
1710.040  0.89616  -48.65
1723.695  0.89371  -48.85
1737.349  0.89442  -49.25
1751.004  0.89548  -49.15
1764.659  0.91059  -48.87
1778.313  0.90385  -50.08
1791.968  0.89501  -51.43
1805.622  0.89439  -52.74
1819.277  0.88737  -54.69
1832.932  0.88934  -55.51
1846.586  0.89182  -56.94
1860.241  0.89592  -58.18
1873.896  0.90290  -58.63
1887.550  0.90066  -58.37
1901.205  0.90540  -58.47
1914.859  0.89879  -58.02
1928.514  0.89456  -58.03
1942.169  0.88931  -58.21
1955.823  0.88749  -59.16
1969.478  0.88218  -60.19
1983.133  0.87326  -63.07
1996.787  0.87006  -65.29
2010.442  0.87688  -66.52
2024.096  0.88362  -67.79
2037.751  0.88114  -68.12
2051.406  0.88389  -68.10
2065.060  0.89174  -67.36
2078.715  0.88745  -67.36
2092.369  0.88180  -66.69
2106.024  0.87729  -67.39
2119.679  0.87405  -68.13
2133.333  0.86744  -70.40
2146.988  0.85517  -72.90
2160.643  0.84788  -74.47
2174.297  0.85618  -77.20
2187.952  0.86366  -78.38
2201.606  0.87134  -79.04
2215.261  0.87451  -78.99
2228.916  0.87252  -79.51
2242.570  0.87208  -78.86
2256.225  0.86211  -77.77
2269.880  0.86007  -78.50
2283.534  0.86173  -80.10
2297.189  0.83802  -82.34
2310.843  0.81814  -85.03
2324.498  0.81589  -87.75
2338.153  0.82955  -90.84
2351.807  0.83454  -94.07
2365.462  0.82689  -93.66
2379.116  0.83266  -93.79
2392.771  0.82517  -94.64
2406.426  0.82173  -93.80
2420.080  0.81210  -94.03
2433.735  0.82283  -91.56
2447.390  0.79139  -97.27
2461.044  0.76253 -101.07
2474.699  0.73379 -103.45
2488.353  0.72705 -106.61
2502.008  0.72527 -111.00
2515.663  0.72119 -114.00
2529.317  0.71170 -116.16
2542.972  0.69611 -117.80
2556.627  0.67894 -118.44
2570.281  0.64700 -118.76
2583.936  0.61095 -120.07
2597.590  0.56289 -122.05
2611.245  0.50058 -126.21
2624.900  0.44048 -129.54
2638.554  0.38284 -133.82
2652.209  0.33450 -136.73
2665.863  0.28792 -138.60
2679.518  0.24504 -135.07
2693.173  0.21405 -126.62
2706.827  0.20887 -109.95
2720.482  0.23531  -91.97
2734.137  0.28131  -78.44
2747.791  0.34340  -70.22
2761.446  0.40729  -62.82
2775.100  0.44877  -60.00
2788.755  0.47684  -61.48
2802.410  0.48512  -62.94
2816.064  0.51207  -67.69
2829.719  0.53351  -72.95
2843.373  0.56827  -78.88
2857.028  0.61444  -83.71
2870.683  0.64249  -88.87
2884.337  0.67906  -92.39
2897.992  0.71596  -94.22
2911.647  0.77351  -90.80
2925.301  0.77328  -93.40
2938.956  0.74915  -95.58
2952.610  0.72822  -95.23
2966.265  0.70599  -96.33
2979.920  0.69776 -100.22
2993.574  0.69060 -104.87
3007.229  0.69289 -109.70
3020.884  0.70285 -114.48
3034.538  0.72240 -118.46
3048.193  0.73348 -120.86
3061.847  0.75449 -122.54
3075.502  0.77097 -124.07
3089.157  0.76386 -125.18
3102.811  0.74511 -125.70
3116.466  0.71684 -125.86
3130.120  0.69103 -126.38
3143.775  0.66721 -130.63
3157.430  0.64917 -133.71
3171.084  0.63926 -138.08
3184.739  0.63686 -142.68
3198.394  0.63348 -145.95
3212.048  0.62636 -147.59
3225.703  0.62914 -149.39
3239.357  0.60381 -151.00
3253.012  0.58734 -150.14
3266.667  0.56568 -146.29
3280.321  0.52512 -144.55
3293.976  0.49017 -144.89
3307.631  0.46987 -145.92
3321.285  0.45807 -146.56
3334.940  0.46221 -148.44
3348.594  0.47771 -149.58
3362.249  0.50299 -150.86
3375.904  0.53384 -150.50
3389.558  0.57443 -149.25
3403.213  0.60126 -148.48
3416.867  0.60741 -150.68
3430.522  0.62384 -148.78
3444.177  0.59352 -151.93
3457.831  0.56871 -155.05
3471.486  0.55039 -159.53
3485.141  0.55097 -163.57
3498.795  0.55713 -168.86
3512.450  0.56852 -173.21
3526.104  0.58138 -176.63
3539.759  0.59693 -178.48
3553.414  0.60465  179.62
3567.068  0.58799  177.85
3580.723  0.57283  175.14
3594.378  0.55800  171.57
3608.032  0.52713  168.17
3621.687  0.50708  164.13
3635.341  0.49209  157.78
3648.996  0.48706  151.86
3662.651  0.49125  145.99
3676.305  0.49185  143.21
3689.960  0.48912  140.76
3703.614  0.48331  137.16
3717.269  0.46427  135.44
3730.924  0.42640  132.31
3744.578  0.38176  129.35
3758.233  0.34912  120.37
3771.888  0.31681  111.09
3785.542  0.28026   97.89
3799.197  0.27233   89.24
3812.851  0.29001   81.72
3826.506  0.28247   73.73
3840.161  0.29023   69.38
3853.815  0.25691   71.43
3867.470  0.21312   66.70
3881.124  0.17548   51.77
3894.779  0.13539   35.60
3908.434  0.14072    8.83
3922.088  0.15120  -27.10
3935.743  0.21852  -41.09
3949.398  0.25878  -48.73
3963.052  0.27278  -45.79
3976.707  0.27943  -52.31
3990.361  0.25993  -56.39
4004.016  0.24176  -63.12
4017.671  0.22045  -84.68
4031.325  0.24579 -100.95
4044.980  0.30857 -114.18
4058.635  0.37242 -119.69
4072.289  0.42699 -120.90
4085.944  0.50626 -117.67
4099.598  0.54191 -112.75
4113.253  0.53783 -112.59
4126.908  0.52402 -112.86
4140.562  0.48375 -120.14
4154.217  0.43690 -131.74
4167.871  0.43165 -140.52
4181.526  0.43461 -153.83
4195.181  0.45806 -162.04
4208.835  0.49081 -168.23
4222.490  0.55128 -169.60
4236.145  0.63483 -169.57
4249.799  0.73338 -168.29
4263.454  0.78818 -167.18
4277.108  0.85566 -163.22
4290.763  0.79715 -162.70
4304.418  0.74145 -169.32
4318.072  0.67207  179.06
4331.727  0.58636  171.03
4345.382  0.56718  162.98
4359.036  0.57410  153.92
4372.691  0.58994  150.08
4386.345  0.63040  148.03
4400.000  0.69921  147.54
