# MHz S MA R 50
!   freq        S11       
1000.000  0.97588  -31.68
1013.655  0.96644  -27.49
1027.309  0.95561  -26.44
1040.964  0.94017  -28.30
1054.618  1.00426  -24.94
1068.273  0.98318  -25.18
1081.928  0.97082  -25.85
1095.582  0.96222  -26.58
1109.237  0.95911  -27.46
1122.892  0.95753  -28.02
1136.546  0.95663  -28.75
1150.201  0.95436  -29.20
1163.855  0.95090  -29.74
1177.510  0.95010  -30.18
1191.165  0.94605  -30.54
1204.819  0.94999  -30.23
1218.474  0.95541  -30.40
1232.129  0.95787  -30.55
1245.783  0.95535  -30.81
1259.438  0.95745  -31.00
1273.092  0.95275  -31.65
1286.747  0.95136  -32.28
1300.402  0.94716  -33.56
1314.056  0.94505  -34.48
1327.711  0.94580  -35.18
1341.365  0.94560  -36.42
1355.020  0.94049  -36.20
1368.675  0.94139  -36.43
1382.329  0.94516  -36.17
1395.984  0.94425  -36.04
1409.639  0.94725  -35.75
1423.293  0.95108  -35.73
1436.948  0.94706  -36.57
1450.602  0.94722  -36.83
1464.257  0.94429  -38.54
1477.912  0.94279  -38.92
1491.566  0.93806  -40.68
1505.221  0.93423  -41.05
1518.876  0.93184  -41.39
1532.530  0.93045  -41.49
1546.185  0.92912  -42.04
1559.839  0.93410  -41.31
1573.494  0.93697  -41.46
1587.149  0.93918  -41.16
1600.803  0.93953  -41.64
1614.458  0.93851  -42.69
1628.112  0.93691  -43.67
1641.767  0.93249  -44.98
1655.422  0.93390  -46.30
1669.076  0.93346  -46.78
1682.731  0.93085  -46.80
1696.386  0.93898  -45.81
1710.040  0.92501  -47.11
1723.695  0.92151  -47.80
1737.349  0.92260  -47.98
1751.004  0.92595  -47.45
1764.659  0.94219  -47.29
1778.313  0.93354  -48.35
1791.968  0.92979  -49.54
1805.622  0.92686  -51.30
1819.277  0.91781  -53.13
1832.932  0.92180  -53.69
1846.586  0.92304  -55.40
1860.241  0.92518  -56.36
1873.896  0.93295  -56.56
1887.550  0.92865  -56.86
1901.205  0.93580  -56.25
1914.859  0.92839  -56.77
1928.514  0.92375  -56.12
1942.169  0.91828  -56.40
1955.823  0.91857  -57.42
1969.478  0.91586  -58.96
1983.133  0.90662  -60.93
1996.787  0.90270  -63.37
2010.442  0.90672  -64.25
2024.096  0.91377  -65.10
2037.751  0.91113  -65.89
2051.406  0.91427  -66.32
2065.060  0.92122  -65.26
2078.715  0.91567  -64.98
2092.369  0.91127  -64.92
2106.024  0.91229  -64.64
2119.679  0.90826  -65.71
2133.333  0.89793  -67.26
2146.988  0.88945  -69.90
2160.643  0.87978  -71.91
2174.297  0.88614  -74.18
2187.952  0.89104  -75.06
2201.606  0.89818  -75.81
2215.261  0.90120  -75.85
2228.916  0.89768  -76.39
2242.570  0.89519  -76.29
2256.225  0.88477  -75.04
2269.880  0.88419  -75.43
2283.534  0.88573  -77.23
2297.189  0.86310  -79.29
2310.843  0.84197  -81.95
2324.498  0.83685  -84.77
2338.153  0.85137  -87.03
2351.807  0.85479  -90.07
2365.462  0.84640  -89.98
2379.116  0.84914  -90.31
2392.771  0.83951  -91.14
2406.426  0.83596  -89.94
2420.080  0.82570  -90.11
2433.735  0.83660  -87.86
2447.390  0.80082  -92.64
2461.044  0.77261  -96.05
2474.699  0.74228  -98.21
2488.353  0.73312 -101.64
2502.008  0.72968 -104.98
2515.663  0.72476 -108.73
2529.317  0.71458 -110.50
2542.972  0.69897 -111.68
2556.627  0.68272 -112.10
2570.281  0.65400 -111.85
2583.936  0.61520 -113.40
2597.590  0.57076 -114.49
2611.245  0.51315 -116.54
2624.900  0.45536 -119.44
2638.554  0.40004 -121.90
2652.209  0.35619 -123.79
2665.863  0.31630 -124.48
2679.518  0.28445 -121.32
2693.173  0.26603 -115.94
2706.827  0.26797 -105.18
2720.482  0.28800  -93.09
2734.137  0.32192  -82.08
2747.791  0.36592  -74.21
2761.446  0.42145  -65.09
2775.100  0.45569  -61.42
2788.755  0.47877  -62.15
2802.410  0.48398  -61.96
2816.064  0.50831  -65.29
2829.719  0.53059  -70.46
2843.373  0.56344  -75.86
2857.028  0.60563  -80.04
2870.683  0.63191  -84.53
2884.337  0.67068  -87.88
2897.992  0.70694  -89.28
2911.647  0.76381  -86.19
2925.301  0.76703  -87.91
2938.956  0.74736  -89.40
2952.610  0.72864  -89.49
2966.265  0.70507  -89.68
2979.920  0.69537  -92.77
2993.574  0.68874  -96.86
3007.229  0.69077 -102.22
3020.884  0.70390 -107.15
3034.538  0.72062 -111.36
3048.193  0.73511 -113.92
3061.847  0.76000 -115.02
3075.502  0.77940 -116.65
3089.157  0.77151 -117.70
3102.811  0.75817 -117.27
3116.466  0.72708 -117.67
3130.120  0.70327 -118.04
3143.775  0.67699 -121.83
3157.430  0.65758 -124.79
3171.084  0.64512 -129.25
3184.739  0.64639 -133.71
3198.394  0.64228 -137.89
3212.048  0.63841 -139.68
3225.703  0.64958 -141.56
3239.357  0.62970 -143.68
3253.012  0.61300 -142.80
3266.667  0.59638 -140.81
3280.321  0.55311 -138.89
3293.976  0.50828 -140.43
3307.631  0.47325 -141.63
3321.285  0.45377 -143.12
3334.940  0.44823 -145.04
3348.594  0.45346 -146.73
3362.249  0.47502 -146.83
3375.904  0.50549 -146.34
3389.558  0.53827 -143.47
3403.213  0.57106 -143.61
3416.867  0.57982 -143.93
3430.522  0.60057 -142.38
3444.177  0.57912 -144.52
3457.831  0.55205 -147.98
3471.486  0.53885 -152.03
3485.141  0.53348 -156.75
3498.795  0.53843 -163.24
3512.450  0.55258 -167.53
3526.104  0.58216 -171.66
3539.759  0.58674 -174.32
3553.414  0.59307 -175.90
3567.068  0.57998 -178.87
3580.723  0.56838  178.66
3594.378  0.55595  175.09
3608.032  0.52438  170.30
3621.687  0.50076  165.18
3635.341  0.48685  159.51
3648.996  0.47916  152.40
3662.651  0.48387  146.45
3676.305  0.48435  142.97
3689.960  0.48714  139.17
3703.614  0.48350  136.01
3717.269  0.46878  133.95
3730.924  0.43714  129.94
3744.578  0.39302  125.06
3758.233  0.36672  114.67
3771.888  0.32992  104.98
3785.542  0.31523   92.40
3799.197  0.31558   81.33
3812.851  0.34155   76.15
3826.506  0.33416   69.85
3840.161  0.32386   67.51
3853.815  0.32252   64.37
3867.470  0.28170   59.17
3881.124  0.23668   52.77
3894.779  0.20112   34.51
3908.434  0.20661   15.33
3922.088  0.20991   -7.90
3935.743  0.26549  -21.35
3949.398  0.29172  -32.32
3963.052  0.31780  -30.31
3976.707  0.31848  -33.76
3990.361  0.29315  -39.61
4004.016  0.27311  -46.30
4017.671  0.24508  -62.74
4031.325  0.24494  -78.99
4044.980  0.29014  -94.46
4058.635  0.35242 -104.96
4072.289  0.39929 -107.64
4085.944  0.47906 -107.51
4099.598  0.50979 -102.91
4113.253  0.50871 -102.75
4126.908  0.49440 -105.50
4140.562  0.45697 -113.85
4154.217  0.42007 -122.40
4167.871  0.40432 -134.44
4181.526  0.39706 -147.05
4195.181  0.42003 -158.44
4208.835  0.44421 -164.51
4222.490  0.50256 -167.45
4236.145  0.58778 -167.73
4249.799  0.68979 -165.91
4263.454  0.73215 -162.17
4277.108  0.77921 -162.30
4290.763  0.74611 -162.87
4304.418  0.71153 -170.16
4318.072  0.63338  177.44
4331.727  0.56632  169.19
4345.382  0.54979  159.88
4359.036  0.55300  152.73
4372.691  0.57528  146.93
4386.345  0.62351  145.85
4400.000  0.69431  145.74
