# MHz S MA R 50
!   freq        S11       
1000.000  1.04529   -9.44
1013.655  1.01410   -4.82
1027.309  0.99794   -3.57
1040.964  0.98771   -5.71
1054.618  1.00474   -3.63
1068.273  1.00261   -3.68
1081.928  1.00222   -3.98
1095.582  1.00049   -4.17
1109.237  0.99908   -4.65
1122.892  1.00161   -4.41
1136.546  1.00118   -4.49
1150.201  1.00045   -4.24
1163.855  1.00047   -4.34
1177.510  0.99966   -4.28
1191.165  0.99484   -4.35
1204.819  0.99734   -4.44
1218.474  0.99859   -4.50
1232.129  0.99911   -4.60
1245.783  1.00015   -4.80
1259.438  1.00080   -4.92
1273.092  1.00172   -5.09
1286.747  1.00301   -4.89
1300.402  0.99869   -5.10
1314.056  0.99767   -5.38
1327.711  1.00184   -5.14
1341.365  1.00023   -5.57
1355.020  0.99744   -5.03
1368.675  0.99689   -5.52
1382.329  0.99953   -5.74
1395.984  0.99808   -5.55
1409.639  0.99916   -5.88
1423.293  1.00116   -5.88
1436.948  1.00156   -6.08
1450.602  1.00297   -5.99
1464.257  1.00375   -6.25
1477.912  1.00353   -5.89
1491.566  1.00016   -6.09
1505.221  0.99934   -6.21
1518.876  0.99829   -6.08
1532.530  0.99644   -6.55
1546.185  0.99473   -6.49
1559.839  0.99773   -6.45
1573.494  0.99889   -6.81
1587.149  1.00112   -6.89
1600.803  1.00283   -7.14
1614.458  1.00317   -6.76
1628.112  1.00578   -7.12
1641.767  1.00353   -7.21
1655.422  1.00148   -7.18
1669.076  1.00003   -7.36
1682.731  0.99765   -7.13
1696.386  0.99715   -6.89
1710.040  0.99477   -7.64
1723.695  0.99440   -7.99
1737.349  0.99708   -8.20
1751.004  0.99737   -8.27
1764.659  1.00289   -7.32
1778.313  1.00231   -8.11
1791.968  1.00281   -8.06
1805.622  1.00217   -8.02
1819.277  1.00045   -8.90
1832.932  1.00088   -8.50
1846.586  0.99938   -8.79
1860.241  0.99854   -8.95
1873.896  1.00118   -8.77
1887.550  0.99943   -9.48
1901.205  1.00234   -9.05
1914.859  1.00044   -9.63
1928.514  1.00287   -9.23
1942.169  1.00113   -9.65
1955.823  1.00481   -9.63
1969.478  1.00301   -9.27
1983.133  1.00288   -9.76
1996.787  1.00176   -9.36
2010.442  0.99963   -9.90
2024.096  1.00356  -10.01
2037.751  0.99976  -10.31
2051.406  0.99860  -10.84
2065.060  0.99908  -10.57
2078.715  1.00027  -11.30
2092.369  1.00109  -10.80
2106.024  1.00104  -11.03
2119.679  1.00452  -11.01
2133.333  1.00549  -11.31
2146.988  1.00526  -10.80
2160.643  1.00060  -11.63
2174.297  0.99860  -11.28
2187.952  1.00096  -11.08
2201.606  1.00270  -11.40
2215.261  0.99866  -11.55
2228.916  1.00207  -12.32
2242.570  1.00168  -12.43
2256.225  1.00129  -12.20
2269.880  1.00152  -12.04
2283.534  1.00306  -12.10
2297.189  1.00555  -12.27
2310.843  1.00204  -13.29
2324.498  1.00674  -13.57
2338.153  1.00055  -13.29
2351.807  1.00557  -13.66
2365.462  0.99932  -13.88
2379.116  1.00467  -13.53
2392.771  1.00135  -14.79
2406.426  0.99935  -14.75
2420.080  1.00071  -14.68
2433.735  1.00087  -13.96
2447.390  1.00212  -14.37
2461.044  1.00599  -14.80
2474.699  1.00256  -15.13
2488.353  0.99977  -16.57
2502.008  1.00378  -14.09
2515.663  1.00739  -15.07
2529.317  1.00228  -16.30
2542.972  0.99771  -16.23
2556.627  1.00194  -16.42
2570.281  1.00150  -16.63
2583.936  1.00019  -16.51
2597.590  1.00491  -16.32
2611.245  1.00719  -17.00
2624.900  1.00826  -16.67
2638.554  1.00526  -17.70
2652.209  1.00431  -17.56
2665.863  1.01048  -18.07
2679.518  1.00525  -17.05
2693.173  1.01249  -18.88
2706.827  1.02247  -19.04
2720.482  1.02827  -19.16
2734.137  1.03378  -19.64
2747.791  1.03363  -19.20
2761.446  1.01876  -18.55
2775.100  1.01492  -18.47
2788.755  1.01936  -18.84
2802.410  0.99405  -20.54
2816.064  1.00572  -19.58
2829.719  1.00523  -20.43
2843.373  1.01269  -21.11
2857.028  1.02010  -20.73
2870.683  1.01924  -22.12
2884.337  1.02397  -21.46
2897.992  1.03170  -21.85
2911.647  1.02787  -21.43
2925.301  1.02882  -21.66
2938.956  1.03332  -22.39
2952.610  1.02753  -22.33
2966.265  0.99527  -23.03
2979.920  1.00613  -23.12
2993.574  1.00335  -23.18
3007.229  1.00775  -24.25
3020.884  1.01102  -24.95
3034.538  1.01164  -24.26
3048.193  1.02290  -25.31
3061.847  1.03050  -25.43
3075.502  1.03386  -26.51
3089.157  1.03847  -26.18
3102.811  1.04114  -26.41
3116.466  1.03524  -27.79
3130.120  1.00717  -26.58
3143.775  1.01211  -27.73
3157.430  1.00942  -27.11
3171.084  1.00492  -27.10
3184.739  1.01236  -28.14
3198.394  1.01587  -28.70
3212.048  1.01779  -29.83
3225.703  1.03612  -30.04
3239.357  1.03632  -30.68
3253.012  1.04546  -29.42
3266.667  1.04872  -29.15
3280.321  1.02064  -30.72
3293.976  1.01779  -30.14
3307.631  1.02702  -31.69
3321.285  1.00757  -31.38
3334.940  1.01317  -31.12
3348.594  1.00781  -32.87
3362.249  1.00940  -33.67
3375.904  1.01709  -34.38
3389.558  1.01398  -32.68
3403.213  1.03051  -33.18
3416.867  1.04659  -33.02
3430.522  1.03881  -33.48
3444.177  1.01852  -34.72
3457.831  1.02963  -34.93
3471.486  1.02205  -37.77
3485.141  1.01961  -37.49
3498.795  1.02494  -38.62
3512.450  1.01830  -38.00
3526.104  1.01583  -39.08
3539.759  1.01893  -40.31
3553.414  1.01510  -40.70
3567.068  1.04951  -41.30
3580.723  1.05749  -41.84
3594.378  1.05898  -43.47
3608.032  1.04206  -43.72
3621.687  1.04374  -44.09
3635.341  1.04193  -43.35
3648.996  1.02936  -45.11
3662.651  1.01859  -45.64
3676.305  1.01562  -45.79
3689.960  1.00345  -48.35
3703.614  1.00033  -48.12
3717.269  1.02361  -50.48
3730.924  1.05953  -49.24
3744.578  1.08206  -50.42
3758.233  1.04778  -52.48
3771.888  1.06287  -52.44
3785.542  1.07153  -53.22
3799.197  1.06428  -56.15
3812.851  1.03040  -56.49
3826.506  1.02165  -57.13
3840.161  0.99596  -56.98
3853.815  0.98116  -59.24
3867.470  1.00097  -61.63
3881.124  1.01661  -63.29
3894.779  1.04379  -63.98
3908.434  1.04766  -65.39
3922.088  1.11709  -66.19
3935.743  1.12228  -65.90
3949.398  1.15380  -66.65
3963.052  1.07124  -67.25
3976.707  1.06164  -71.71
3990.361  1.00577  -74.28
4004.016  0.97963  -78.51
4017.671  0.89959  -87.18
4031.325  0.90065  -90.63
4044.980  0.99379  -93.84
4058.635  1.04407  -96.71
4072.289  1.02601  -94.81
4085.944  1.09017  -92.76
4099.598  1.06453  -90.15
4113.253  1.02092  -93.34
4126.908  0.96021  -99.08
4140.562  0.90782 -110.31
4154.217  0.83025 -120.58
4167.871  0.77471 -131.60
4181.526  0.74682 -142.78
4195.181  0.68904 -156.07
4208.835  0.66513 -170.85
4222.490  0.66761  176.55
4236.145  0.68540  158.90
4249.799  0.75583  140.25
4263.454  0.81185  123.15
4277.108  0.85457  108.16
4290.763  0.88063   92.42
4304.418  0.83598   76.36
4318.072  0.80170   61.52
4331.727  0.77984   47.87
4345.382  0.82175   35.61
4359.036  0.84717   25.25
4372.691  0.82880   16.99
4386.345  0.85386    7.78
4400.000  0.86762    3.87
